Standard ID: 0x3BD       DLC: 2  Data: 0xFD 0xFF
Standard ID: 0x0E6       DLC: 8  Data: 0x81 0xFF 0xE7 0xFC 0xFF 0xFF 0xFF 0xFF
Standard ID: 0x0E6       DLC: 8  Data: 0x81 0xFF 0xE7 0xFC 0xFF 0xFF 0xFF 0xFF
Standard ID: 0x0FC       DLC: 3  Data: 0xFF 0xF8 0xFF
Standard ID: 0x130       DLC: 5  Data: 0x00 0x0F 0x34 0x3F 0xAC
Standard ID: 0x4C0       DLC: 8  Data: 0x40 0x01 0xFF 0xFF 0xFF 0xFF 0xFF 0xFF
Standard ID: 0x2FC       DLC: 7  Data: 0x81 0x00 0x0D 0xFF 0xFF 0xFF 0xFF
Standard ID: 0x315       DLC: 2  Data: 0x3D 0xF1
Standard ID: 0x4E4       DLC: 8  Data: 0x64 0x01 0xFF 0xFF 0xFF 0xFF 0xFF 0xFF
Standard ID: 0x0EA       DLC: 8  Data: 0x8F 0xFF 0xE0 0xFC 0xFF 0xFF 0xFF 0x00
Standard ID: 0x2A6       DLC: 2  Data: 0xFF 0xFF
Standard ID: 0x2A6       DLC: 2  Data: 0x00 0xFF
Standard ID: 0x4C5       DLC: 8  Data: 0x45 0x01 0xFF 0xFF 0xFF 0xFF 0xFF 0xFF
Standard ID: 0x1D6       DLC: 2  Data: 0xFF 0xFF
Standard ID: 0x2A6       DLC: 2  Data: 0x00 0xFF
Standard ID: 0x2A6       DLC: 2  Data: 0x00 0xFF
Standard ID: 0x2A6       DLC: 2  Data: 0x00 0xFF
Standard ID: 0x1FE       DLC: 2  Data: 0xFF 0x00
Standard ID: 0x480       DLC: 8  Data: 0x40 0x02 0xFF 0xFF 0xFF 0xFF 0xFF 0xFF
Standard ID: 0x5A9       DLC: 8  Data: 0x40 0x2A 0x00 0x14 0xFF 0xFF 0xFF 0xFF
Standard ID: 0x1D2       DLC: 6  Data: 0xF0 0x0F 0xFF 0x0C 0xF0 0xFF
Standard ID: 0x1A6       DLC: 8  Data: 0x00 0x00 0x00 0x00 0x00 0x00 0x14 0xF0
Standard ID: 0x130       DLC: 5  Data: 0x00 0x0F 0x34 0x3F 0xCD
Standard ID: 0x1B5       DLC: 6  Data: 0xFF 0xFF 0x02 0xF0 0x0F 0xFF
Standard ID: 0x0CE       DLC: 8  Data: 0x00 0x80 0x00 0x80 0x00 0x80 0x00 0x80
Standard ID: 0x1A0       DLC: 8  Data: 0xFF 0x8F 0x00 0x08 0x80 0x00 0x38 0xF1
Standard ID: 0x5A9       DLC: 8  Data: 0x40 0x47 0x00 0x14 0xFF 0xFF 0xFF 0xFF
Standard ID: 0x4E2       DLC: 8  Data: 0x62 0x01 0xFF 0xFF 0xFF 0xFF 0xFF 0xFF
Standard ID: 0x5A9       DLC: 8  Data: 0x40 0xB8 0x00 0x14 0xFF 0xFF 0xFF 0xFF
Standard ID: 0x2FC       DLC: 7  Data: 0x81 0x40 0x0D 0xFF 0xFF 0xFF 0xFF
Standard ID: 0x5A9       DLC: 8  Data: 0x40 0xD7 0x00 0x94 0xFF 0xFF 0xFF 0xFF
Standard ID: 0x1B5       DLC: 6  Data: 0xFF 0xFF 0x02 0xF0 0x0F 0xFF
Standard ID: 0x1B5       DLC: 6  Data: 0xFF 0xFF 0x02 0xF0 0x0F 0xFF
Standard ID: 0x5A9       DLC: 8  Data: 0x40 0x18 0x00 0x14 0xFF 0xFF 0xFF 0xFF
Standard ID: 0x2CA       DLC: 2  Data: 0x5F 0xFF
Standard ID: 0x5A9       DLC: 8  Data: 0x40 0x32 0x00 0x14 0xFF 0xFF 0xFF 0xFF
Standard ID: 0x5A9       DLC: 8  Data: 0x40 0x3F 0x00 0x14 0xFF 0xFF 0xFF 0xFF
Standard ID: 0x0FC       DLC: 3  Data: 0xFF 0xF8 0xFF
Standard ID: 0x242       DLC: 3  Data: 0x3F 0xFC 0xFF
Standard ID: 0x2F0       DLC: 2  Data: 0x34 0xF0
Standard ID: 0x0C8       DLC: 6  Data: 0x00 0x80 0xFD 0x00 0x80 0xB8
Standard ID: 0x19E       DLC: 8  Data: 0x00 0xFA 0x80 0xFC 0xF0 0x63 0xFF 0x6C
Standard ID: 0x1A0       DLC: 8  Data: 0xFF 0x8F 0x00 0x08 0x80 0x00 0x88 0x42
Standard ID: 0x4F2       DLC: 8  Data: 0x72 0x01 0xFF 0xFF 0xFF 0xFF 0xFF 0xFF
Standard ID: 0x0EA       DLC: 8  Data: 0x8F 0xFF 0xE0 0xFC 0xFF 0xFF 0xFF 0x00
Standard ID: 0x4C3       DLC: 8  Data: 0x44 0x12 0xFF 0xFF 0xFF 0xFF 0xFF 0xFF
Standard ID: 0x2F4       DLC: 4  Data: 0xE8 0xFF 0x1E 0xF8
Standard ID: 0x0FD       DLC: 3  Data: 0xFF 0xFF 0xFF
Standard ID: 0x0FC       DLC: 3  Data: 0xFF 0xF8 0xFF
Standard ID: 0x1A6       DLC: 8  Data: 0x00 0x00 0x00 0x00 0x00 0x00 0x34 0xF3
Standard ID: 0x1D2       DLC: 6  Data: 0xF0 0x0F 0xFF 0x1C 0xF0 0xFF
Standard ID: 0x1EA       DLC: 2  Data: 0xFF 0xFF
Standard ID: 0x0AA       DLC: 8  Data: 0xFF 0x0F 0x80 0xFF 0xFF 0xFF 0xFF 0xFF
Standard ID: 0x172       DLC: 5  Data: 0xFF 0xFF 0xFF 0xFF 0xFF
Standard ID: 0x1A0       DLC: 8  Data: 0xFF 0x8F 0x00 0x08 0x80 0x00 0xD8 0x92
Standard ID: 0x2CA       DLC: 2  Data: 0x5F 0xFF
Standard ID: 0x130       DLC: 5  Data: 0x00 0x0F 0x34 0x3F 0xE0
Standard ID: 0x1D0       DLC: 8  Data: 0x36 0xFF 0x40 0x65 0x00 0x00 0xFD 0x00
Standard ID: 0x4C4       DLC: 8  Data: 0x45 0x02 0xFF 0xFF 0xFF 0xFF 0xFF 0xFF
Standard ID: 0x0C0       DLC: 2  Data: 0xF1 0xFF
Standard ID: 0x3B4       DLC: 8  Data: 0x00 0xF0 0x00 0xFF 0x03 0x03 0x00 0x00
Standard ID: 0x2EA       DLC: 8  Data: 0xFF 0x00 0x64 0xFF 0x23 0xFF 0xFF 0xFF
Standard ID: 0x2F0       DLC: 2  Data: 0x34 0xF0
Standard ID: 0x0EA       DLC: 8  Data: 0x8F 0xFF 0xE0 0xFC 0xFF 0xFF 0xFF 0x00
Standard ID: 0x0FD       DLC: 3  Data: 0xFF 0xFF 0xFF
Standard ID: 0x0FC       DLC: 3  Data: 0xFF 0xF8 0xFF
Standard ID: 0x1A6       DLC: 8  Data: 0x00 0x00 0x00 0x00 0x00 0x00 0xC4 0xF4
Standard ID: 0x130       DLC: 5  Data: 0x00 0x0F 0x34 0x3F 0xF1
Standard ID: 0x1EA       DLC: 2  Data: 0xFF 0xFF
Standard ID: 0x0BE       DLC: 5  Data: 0xFF 0xFF 0xFF 0xFF 0xFF
Standard ID: 0x0C8       DLC: 6  Data: 0x00 0x80 0xFD 0x00 0x80 0x05
Standard ID: 0x1A0       DLC: 8  Data: 0x00 0x80 0x00 0x08 0x80 0x00 0x38 0xE2
Standard ID: 0x1D6       DLC: 2  Data: 0xC0 0x00
Standard ID: 0x1D0       DLC: 8  Data: 0x36 0xFF 0x40 0xB6 0x00 0x00 0xFD 0x00
Standard ID: 0x2F4       DLC: 4  Data: 0xE8 0xFF 0x1E 0xF8
Standard ID: 0x4C5       DLC: 8  Data: 0x62 0x12 0xFF 0xFF 0xFF 0xFF 0xFF 0xFF
Standard ID: 0x5E0       DLC: 8  Data: 0x10 0xFF 0xFF 0x02 0x00 0xFF 0xFF 0xFF
Standard ID: 0x21A       DLC: 3  Data: 0x00 0x20 0x24
Standard ID: 0x3B4       DLC: 8  Data: 0xA5 0xF3 0x89 0xFF 0x03 0x03 0x00 0x00
Standard ID: 0x0EA       DLC: 8  Data: 0x8F 0xFF 0xE0 0xFC 0xFF 0xFF 0xFF 0x00
Standard ID: 0x2CA       DLC: 2  Data: 0x5F 0xFF
Standard ID: 0x202       DLC: 2  Data: 0xFE 0xFF
Standard ID: 0x0FD       DLC: 3  Data: 0xFF 0xFF 0xFF
Standard ID: 0x0FC       DLC: 3  Data: 0xFF 0xF8 0xFF
Standard ID: 0x1A6       DLC: 8  Data: 0x00 0x00 0x00 0x00 0x00 0x00 0x54 0xF6
Standard ID: 0x3B3       DLC: 6  Data: 0xF1 0xC8 0xFF 0x7F 0x00 0x09
Standard ID: 0x0A8       DLC: 8  Data: 0x6C 0xF1 0xF5 0xF0 0xF5 0xF1 0x03 0x00
Standard ID: 0x0AA       DLC: 8  Data: 0x17 0xF1 0xF5 0x00 0x00 0x00 0x84 0x00
Standard ID: 0x0CE       DLC: 8  Data: 0x00 0x00 0x00 0x00 0x00 0x00 0x00 0x00
Standard ID: 0x2E6       DLC: 8  Data: 0x3B 0x50 0x32 0x32 0x80 0xFF 0xFF 0xFF
Standard ID: 0x2F0       DLC: 2  Data: 0x34 0xF0
Standard ID: 0x4E4       DLC: 8  Data: 0x65 0x11 0xFF 0xFF 0xFF 0xFF 0xFF 0xFF
Standard ID: 0x480       DLC: 8  Data: 0x38 0x01 0xFF 0xFF 0xFF 0xFF 0xFF 0xFF
Standard ID: 0x4F8       DLC: 8  Data: 0x00 0x11 0xFF 0xFF 0xFF 0xFF 0xFF 0xFF
Standard ID: 0x4F2       DLC: 8  Data: 0x73 0x11 0xFF 0xFF 0xFF 0xFF 0xFF 0xFF
Standard ID: 0x0EA       DLC: 8  Data: 0x8F 0xFF 0xE0 0xFC 0xFF 0xFF 0xFF 0x00
Standard ID: 0x130       DLC: 5  Data: 0x00 0x0F 0x34 0x3F 0x02
Standard ID: 0x0FD       DLC: 3  Data: 0xFF 0xFF 0xFF
Standard ID: 0x0FC       DLC: 3  Data: 0xFF 0xF8 0xFF
Standard ID: 0x1A6       DLC: 8  Data: 0x00 0x00 0x00 0x00 0x00 0x00 0xE4 0xF7
Standard ID: 0x2F4       DLC: 4  Data: 0xE8 0xFF 0x1E 0xF8
Standard ID: 0x130       DLC: 5  Data: 0x00 0x0F 0x34 0x3F 0x13
Standard ID: 0x0BE       DLC: 5  Data: 0xFF 0xFF 0xFF 0xFF 0xFF
Standard ID: 0x0C8       DLC: 6  Data: 0x00 0x80 0xFD 0x00 0x80 0x25
Standard ID: 0x1A0       DLC: 8  Data: 0x00 0x80 0x00 0x08 0x80 0x00 0xD8 0x83
Standard ID: 0x4C0       DLC: 8  Data: 0x43 0x02 0xFF 0xFF 0xFF 0xFF 0xFF 0xFF
Standard ID: 0x5E0       DLC: 8  Data: 0x10 0xFF 0xFF 0x02 0x00 0xFF 0xFF 0xFF
Standard ID: 0x1D0       DLC: 8  Data: 0x36 0xFF 0x41 0xB6 0x00 0x00 0xFD 0xFF
Standard ID: 0x0EA       DLC: 8  Data: 0x8F 0xFF 0xE0 0xFC 0xFF 0xFF 0xFF 0x00
Standard ID: 0x328       DLC: 6  Data: 0xF1 0x02 0x00 0x00 0xB3 0x18
Standard ID: 0x0FD       DLC: 3  Data: 0xFF 0xFF 0xFF
Standard ID: 0x0FC       DLC: 3  Data: 0xFF 0xF8 0xFF
Standard ID: 0x1A6       DLC: 8  Data: 0x00 0x00 0x00 0x00 0x00 0x00 0x74 0xF9
Standard ID: 0x1B6       DLC: 7  Data: 0xFF 0xFF 0x00 0xFF 0x00 0xFC 0x0C
Standard ID: 0x0A8       DLC: 8  Data: 0x73 0xF6 0xF5 0xF2 0xF5 0xF1 0x03 0x00
Standard ID: 0x0AA       DLC: 8  Data: 0x1C 0xF6 0xF5 0x00 0x00 0x00 0x84 0x00
Standard ID: 0x0CE       DLC: 8  Data: 0x00 0x00 0x00 0x00 0x00 0x00 0x00 0x00
Standard ID: 0x1D2       DLC: 6  Data: 0xF0 0x0F 0xFF 0x3C 0xF0 0xFF
Standard ID: 0x4C3       DLC: 8  Data: 0x44 0x12 0xFF 0xFF 0xFF 0xFF 0xFF 0xFF
Standard ID: 0x1D0       DLC: 8  Data: 0x36 0xFF 0x42 0xB6 0x00 0x00 0xFD 0xFF
Standard ID: 0x130       DLC: 5  Data: 0x00 0x0F 0x34 0x3F 0x24
Standard ID: 0x0C0       DLC: 2  Data: 0xF3 0xFF
Standard ID: 0x0EA       DLC: 8  Data: 0x8F 0xFF 0xE0 0xFC 0xFF 0xFF 0xFF 0x00
Standard ID: 0x0FD       DLC: 3  Data: 0xFF 0xFF 0xFF
Standard ID: 0x0FC       DLC: 3  Data: 0xFF 0xF8 0xFF
Standard ID: 0x1A6       DLC: 8  Data: 0x00 0x00 0x00 0x00 0x00 0x00 0x04 0xFB
Standard ID: 0x5E0       DLC: 8  Data: 0x10 0xFF 0xFF 0x01 0x00 0xFF 0xFF 0xFF
Standard ID: 0x0A8       DLC: 8  Data: 0x6C 0xF1 0xF5 0xF0 0xF5 0xF1 0x03 0x00
Standard ID: 0x4C4       DLC: 8  Data: 0x45 0x02 0xFF 0xFF 0xFF 0xFF 0xFF 0xFF
Standard ID: 0x19E       DLC: 8  Data: 0x00 0xFA 0x80 0xFC 0xF0 0x63 0x00 0x6C
Standard ID: 0x1A0       DLC: 8  Data: 0x00 0x80 0x00 0x08 0x80 0x00 0x88 0x33
Standard ID: 0x130       DLC: 5  Data: 0x00 0x0F 0x34 0x3F 0x35
Standard ID: 0x1D0       DLC: 8  Data: 0x36 0xFF 0x42 0xB6 0x00 0x00 0xFD 0xFF
Standard ID: 0x0EA       DLC: 8  Data: 0x8F 0xFF 0xE0 0xFC 0xFF 0xFF 0xFF 0x00
Standard ID: 0x0FD       DLC: 3  Data: 0xFF 0xFF 0xFF
Standard ID: 0x0FC       DLC: 3  Data: 0xFF 0xF8 0xFF
Standard ID: 0x1A6       DLC: 8  Data: 0x00 0x00 0x00 0x00 0x00 0x00 0x94 0xFC
Standard ID: 0x130       DLC: 5  Data: 0x00 0x0F 0x34 0x3F 0x46
Standard ID: 0x4C5       DLC: 8  Data: 0x60 0x12 0xFF 0xFF 0xFF 0xFF 0xFF 0xFF
Standard ID: 0x0AA       DLC: 8  Data: 0x21 0xFB 0xF5 0x00 0x00 0x00 0x84 0x00
Standard ID: 0x0CE       DLC: 8  Data: 0x00 0x00 0x00 0x00 0x00 0x00 0x00 0x00
Standard ID: 0x1D2       DLC: 6  Data: 0xF0 0x0F 0xFF 0x4C 0xF0 0xFF
Standard ID: 0x0A8       DLC: 8  Data: 0x76 0xFB 0xF5 0xF0 0xF5 0xF1 0x03 0x00
Standard ID: 0x1D0       DLC: 8  Data: 0x36 0xFF 0x43 0xB6 0x00 0x00 0xFD 0xFF
Standard ID: 0x5E0       DLC: 8  Data: 0x10 0xFF 0xFF 0x01 0x00 0xFF 0xFF 0xFF
Standard ID: 0x0C0       DLC: 2  Data: 0xF4 0xFF
Standard ID: 0x3B4       DLC: 8  Data: 0x37 0xF3 0x89 0xFF 0x03 0x03 0x00 0x00
Standard ID: 0x0EA       DLC: 8  Data: 0x8F 0xFF 0xE0 0xFC 0xFF 0xFF 0xFF 0x00
Standard ID: 0x0FD       DLC: 3  Data: 0xFF 0xFF 0xFF
Standard ID: 0x0FC       DLC: 3  Data: 0xFF 0xF8 0xFF
Standard ID: 0x1A6       DLC: 8  Data: 0x00 0x00 0x00 0x00 0x00 0x00 0x24 0xFE
Standard ID: 0x4E0       DLC: 8  Data: 0x62 0x12 0xFF 0xFF 0xFF 0xFF 0xFF 0xFF
Standard ID: 0x0A8       DLC: 8  Data: 0x71 0xF6 0xF5 0xF0 0xF5 0xF1 0x03 0x00
Standard ID: 0x0C4       DLC: 7  Data: 0x00 0x80 0xFD 0x00 0x80 0xE3 0xFD
Standard ID: 0x19E       DLC: 8  Data: 0x00 0xFA 0x30 0xFC 0xF0 0x63 0x00 0x1C
Standard ID: 0x1FE       DLC: 2  Data: 0xFF 0x00
Standard ID: 0x304       DLC: 2  Data: 0xE3 0xFF
Standard ID: 0x130       DLC: 5  Data: 0x00 0x0F 0x34 0x3F 0x57
Standard ID: 0x1D0       DLC: 8  Data: 0x36 0xFF 0x43 0xB6 0x00 0x00 0xFD 0xFF
Standard ID: 0x2CA       DLC: 2  Data: 0x5F 0xFF
Standard ID: 0x0EA       DLC: 8  Data: 0x8F 0xFF 0xE0 0xFC 0xFF 0xFF 0xFF 0x00
Standard ID: 0x0FD       DLC: 3  Data: 0xFF 0xFF 0xFF
Standard ID: 0x0FC       DLC: 3  Data: 0xFF 0xF8 0xFF
Standard ID: 0x1A6       DLC: 8  Data: 0x00 0x00 0x00 0x00 0x00 0x00 0xB4 0xFF
Standard ID: 0x5E0       DLC: 8  Data: 0x10 0xFF 0xFF 0x01 0x00 0xFF 0xFF 0xFF
Standard ID: 0x0A8       DLC: 8  Data: 0x6C 0xF1 0xF5 0xF0 0xF5 0xF1 0x03 0x00
Standard ID: 0x0AA       DLC: 8  Data: 0x17 0xF1 0xF5 0x00 0x00 0x00 0x84 0x00
Standard ID: 0x0CE       DLC: 8  Data: 0x00 0x00 0x00 0x00 0x00 0x00 0x00 0x00
Standard ID: 0x1D2       DLC: 6  Data: 0xF0 0x0F 0xFF 0x5C 0xF0 0xFF
Standard ID: 0x130       DLC: 5  Data: 0x00 0x0F 0x34 0x3F 0x68
Standard ID: 0x1D0       DLC: 8  Data: 0x36 0xFF 0x44 0xB6 0x00 0x00 0xFD 0xFF
Standard ID: 0x0C0       DLC: 2  Data: 0xF5 0xFF
Standard ID: 0x1B5       DLC: 6  Data: 0xFF 0xFF 0x02 0x00 0x08 0xFF
Standard ID: 0x0EA       DLC: 8  Data: 0x8F 0xFF 0xE0 0xFC 0xFF 0xFF 0xFF 0x00
Standard ID: 0x4E4       DLC: 8  Data: 0x65 0x12 0xFF 0xFF 0xFF 0xFF 0xFF 0xFF
Standard ID: 0x0FD       DLC: 3  Data: 0xFF 0xFF 0xFF
Standard ID: 0x1A6       DLC: 8  Data: 0x00 0x00 0x00 0x00 0x00 0x00 0x44 0xF1
Standard ID: 0x130       DLC: 5  Data: 0x00 0x0F 0x34 0x3F 0x79
Standard ID: 0x0A8       DLC: 8  Data: 0x76 0xFB 0xF5 0xF0 0xF5 0xF1 0x03 0x00
Standard ID: 0x0C4       DLC: 7  Data: 0x00 0x80 0xFD 0x00 0x80 0xE3 0xFD
Standard ID: 0x19E       DLC: 8  Data: 0x00 0xFA 0xD0 0xFC 0xF0 0x63 0x00 0xBC
Standard ID: 0x1A0       DLC: 8  Data: 0x00 0x80 0x00 0x88 0x00 0x00 0xD8 0x83
Standard ID: 0x0FC       DLC: 3  Data: 0xFF 0xF8 0xFF
Standard ID: 0x1D0       DLC: 8  Data: 0x36 0xFF 0x44 0xB6 0x00 0x00 0xFD 0xFF
Standard ID: 0x0EA       DLC: 8  Data: 0x8F 0xFF 0xE0 0xFC 0xFF 0xFF 0xFF 0x00
Standard ID: 0x5C0       DLC: 8  Data: 0x04 0x00 0x32 0xFF 0xFF 0xFF 0xF4 0xFF
Standard ID: 0x4E5       DLC: 8  Data: 0x67 0x12 0xFF 0xFF 0xFF 0xFF 0xFF 0xFF
Standard ID: 0x1A6       DLC: 8  Data: 0x00 0x00 0x00 0x00 0x00 0x00 0xD4 0xF2
Standard ID: 0x0FD       DLC: 3  Data: 0xFF 0xFF 0xFF
Standard ID: 0x0FC       DLC: 3  Data: 0xFF 0xF8 0xFF
Standard ID: 0x130       DLC: 5  Data: 0x00 0x0F 0x34 0x3F 0x8A
Standard ID: 0x0A8       DLC: 8  Data: 0x71 0xF6 0xF5 0xF0 0xF5 0xF1 0x03 0x00
Standard ID: 0x0AA       DLC: 8  Data: 0x1C 0xF6 0xF5 0x00 0x00 0x00 0x84 0x00
Standard ID: 0x0CE       DLC: 8  Data: 0x00 0x00 0x00 0x00 0x00 0x00 0x00 0x00
Standard ID: 0x1B6       DLC: 7  Data: 0xFF 0xFF 0x00 0xFF 0x00 0xFC 0x00
Standard ID: 0x1D2       DLC: 6  Data: 0xF0 0x0F 0xFF 0x6C 0xF0 0xFF
Standard ID: 0x1D0       DLC: 8  Data: 0x36 0xFF 0x45 0xB6 0x00 0x00 0xFD 0xFF
Standard ID: 0x1A0       DLC: 8  Data: 0x00 0x80 0x00 0x80 0x00 0x00 0x38 0xDA
Standard ID: 0x0C0       DLC: 2  Data: 0xF6 0xFF
Standard ID: 0x4E7       DLC: 8  Data: 0x70 0x12 0xFF 0xFF 0xFF 0xFF 0xFF 0xFF
Standard ID: 0x19E       DLC: 8  Data: 0x00 0xEE 0x70 0xFC 0xF0 0x63 0x01 0x51
Standard ID: 0x1A6       DLC: 8  Data: 0x00 0x00 0x00 0x00 0x00 0x00 0x64 0xF4
Standard ID: 0x0FC       DLC: 3  Data: 0xFF 0xF8 0xFF
Standard ID: 0x130       DLC: 5  Data: 0x00 0x0F 0x34 0x3F 0x9B
Standard ID: 0x1EA       DLC: 2  Data: 0xFF 0xFF
Standard ID: 0x0BE       DLC: 5  Data: 0xFF 0xFF 0xFF 0xFF 0xFF
Standard ID: 0x0C8       DLC: 6  Data: 0x00 0x80 0xFD 0x00 0x80 0xA5
Standard ID: 0x1A0       DLC: 8  Data: 0x00 0x80 0x00 0x80 0x00 0xF9 0x8F 0x2C
Standard ID: 0x0FD       DLC: 3  Data: 0xFF 0xFF 0xFF
Standard ID: 0x1D0       DLC: 8  Data: 0x36 0xFF 0x45 0xB6 0x00 0x00 0xFD 0xFF
Standard ID: 0x3B3       DLC: 6  Data: 0xF1 0xFF 0xFF 0x7F 0x00 0x01
Standard ID: 0x3B4       DLC: 8  Data: 0x37 0xF3 0x09 0xFF 0x03 0x03 0x00 0x00
Standard ID: 0x4F0       DLC: 8  Data: 0x72 0x02 0xFF 0xFF 0xFF 0xFF 0xFF 0xFF
Standard ID: 0x1A6       DLC: 8  Data: 0x00 0x00 0x00 0x00 0x00 0x00 0xF4 0xF5
Standard ID: 0x0FD       DLC: 3  Data: 0xFF 0xFF 0xFF
Standard ID: 0x0FC       DLC: 3  Data: 0xFF 0xF8 0xFF
Standard ID: 0x130       DLC: 5  Data: 0x00 0x0F 0x34 0x3F 0xAC
Standard ID: 0x0A8       DLC: 8  Data: 0x76 0xFB 0xF5 0xF0 0xF5 0xF1 0x03 0x00
Standard ID: 0x0AA       DLC: 8  Data: 0x21 0xFB 0xF5 0x00 0x00 0x00 0x84 0x00
Standard ID: 0x0CE       DLC: 8  Data: 0x00 0x00 0x00 0x00 0x00 0x00 0x00 0x00
Standard ID: 0x1D2       DLC: 6  Data: 0xF0 0x0F 0xFF 0x7C 0xF0 0xFF
Standard ID: 0x1A0       DLC: 8  Data: 0x00 0x80 0x01 0x80 0x00 0xFE 0xDF 0x82
Standard ID: 0x1D0       DLC: 8  Data: 0x36 0xFF 0x46 0xB6 0x00 0x00 0xFD 0x01
Standard ID: 0x4F2       DLC: 8  Data: 0x73 0x12 0xFF 0xFF 0xFF 0xFF 0xFF 0xFF
Standard ID: 0x0C0       DLC: 2  Data: 0xF7 0xFF
Standard ID: 0x1A6       DLC: 8  Data: 0x00 0x00 0x00 0x00 0x00 0x00 0x84 0xF7
Standard ID: 0x0FD       DLC: 3  Data: 0xFF 0xFF 0xFF
Standard ID: 0x0FC       DLC: 3  Data: 0xFF 0xF8 0xFF
Standard ID: 0x130       DLC: 5  Data: 0x00 0x0F 0x34 0x3F 0xCD
Standard ID: 0x0A8       DLC: 8  Data: 0x71 0xF6 0xF5 0xF0 0xF5 0xF1 0x03 0x00
Standard ID: 0x0BE       DLC: 5  Data: 0xFF 0xFF 0xFF 0xFF 0xFF
Standard ID: 0x0CE       DLC: 8  Data: 0x00 0x00 0x00 0x00 0x00 0x00 0x00 0x00
Standard ID: 0x1A0       DLC: 8  Data: 0x00 0x80 0x01 0x80 0x00 0x00 0x30 0xD3
Standard ID: 0x0AA       DLC: 8  Data: 0x1C 0xF6 0xF5 0x00 0x00 0x00 0x84 0x00
Standard ID: 0x1D0       DLC: 8  Data: 0x36 0xFF 0x46 0xB6 0x00 0x00 0xFD 0x04
Standard ID: 0x4F3       DLC: 8  Data: 0x78 0x12 0xFF 0x01 0xFF 0xFF 0xFF 0xFF
Standard ID: 0x328       DLC: 6  Data: 0xF2 0x02 0x00 0x00 0xB3 0x18
Standard ID: 0x1A6       DLC: 8  Data: 0x00 0x00 0x00 0x00 0x00 0x00 0x14 0xF9
Standard ID: 0x0FD       DLC: 3  Data: 0xFF 0xFF 0xFF
Standard ID: 0x0FC       DLC: 3  Data: 0xFF 0xF8 0xFF
Standard ID: 0x130       DLC: 5  Data: 0x00 0x0F 0x34 0x3F 0xDE
Standard ID: 0x0A8       DLC: 8  Data: 0x6C 0xF1 0xF5 0xF0 0xF5 0xF1 0x03 0x00
Standard ID: 0x0AA       DLC: 8  Data: 0x17 0xF1 0xF5 0x00 0x00 0x00 0x84 0x00
Standard ID: 0x0CE       DLC: 8  Data: 0x00 0x00 0x00 0x00 0x00 0x00 0x00 0x00
Standard ID: 0x1D2       DLC: 6  Data: 0xF0 0x0F 0xFF 0x8C 0xF0 0xFF
Standard ID: 0x4F8       DLC: 8  Data: 0x00 0x12 0xFF 0xFF 0xFF 0xFF 0xFF 0xFF
Standard ID: 0x1D0       DLC: 8  Data: 0x36 0xFF 0x47 0xB6 0x00 0x00 0xFD 0x07
Standard ID: 0x1A0       DLC: 8  Data: 0x00 0x80 0x00 0x80 0x00 0xF9 0x8F 0x2C
Standard ID: 0x0C0       DLC: 2  Data: 0xF8 0xFF
Standard ID: 0x19E       DLC: 8  Data: 0x00 0xED 0xB0 0xFC 0xF0 0x63 0x00 0x8F
Standard ID: 0x1A6       DLC: 8  Data: 0x00 0x00 0x00 0x00 0x00 0x00 0xA4 0xFA
Standard ID: 0x0FD       DLC: 3  Data: 0xFF 0xFF 0xFF
Standard ID: 0x0FC       DLC: 3  Data: 0xFF 0xF8 0xFF
Standard ID: 0x480       DLC: 8  Data: 0x38 0x02 0xFF 0x01 0xFF 0xFF 0xFF 0xFF
Standard ID: 0x130       DLC: 5  Data: 0x00 0x0F 0x34 0x3F 0xE0
Standard ID: 0x0BE       DLC: 5  Data: 0xFF 0xFF 0xFF 0xFF 0xFF
Standard ID: 0x0CE       DLC: 8  Data: 0x00 0x00 0x00 0x00 0x00 0x00 0x00 0x00
Standard ID: 0x1A0       DLC: 8  Data: 0x00 0x80 0x01 0x80 0x00 0xF9 0xDF 0x7D
Standard ID: 0x0A8       DLC: 8  Data: 0x76 0xFB 0xF5 0xF0 0xF5 0xF1 0x03 0x00
Standard ID: 0x1D0       DLC: 8  Data: 0x36 0xFF 0x47 0xB6 0x00 0x00 0xFD 0x0A
Standard ID: 0x1A6       DLC: 8  Data: 0x00 0x00 0x00 0x00 0x00 0x00 0x34 0xFC
Standard ID: 0x0FD       DLC: 3  Data: 0xFF 0xFF 0xFF
Standard ID: 0x0FC       DLC: 3  Data: 0xFF 0xF8 0xFF
Standard ID: 0x4B8       DLC: 8  Data: 0x40 0x12 0xFF 0x01 0xFF 0xFF 0xFF 0xFF
Standard ID: 0x0A8       DLC: 8  Data: 0x71 0xF6 0xF5 0xF0 0xF5 0xF1 0x03 0x00
Standard ID: 0x0AA       DLC: 8  Data: 0x1C 0xF6 0xF5 0x00 0x00 0x00 0x84 0x00
Standard ID: 0x0CE       DLC: 8  Data: 0x00 0x00 0x00 0x00 0x00 0x00 0x00 0x00
Standard ID: 0x1D2       DLC: 6  Data: 0xF0 0x0F 0xFF 0x9C 0xF0 0xFF
Standard ID: 0x130       DLC: 5  Data: 0x00 0x0F 0x34 0x3F 0xF1
Standard ID: 0x1D0       DLC: 8  Data: 0x36 0xFF 0x48 0xB6 0x00 0x00 0xFD 0x0D
Standard ID: 0x0C0       DLC: 2  Data: 0xF9 0xFF
Standard ID: 0x580       DLC: 8  Data: 0x04 0x11 0x04 0x01 0x05 0xFF 0x00 0xF0
Standard ID: 0x4C0       DLC: 8  Data: 0x43 0x42 0xFF 0xFF 0xFF 0xFF 0xFF 0xFF
Standard ID: 0x1A6       DLC: 8  Data: 0x00 0x00 0x00 0x00 0x00 0x00 0xC4 0xFD
Standard ID: 0x0FC       DLC: 3  Data: 0xFF 0xF8 0xFF
Standard ID: 0x26E       DLC: 8  Data: 0x00 0x00 0x00 0x50 0xFF 0xFF 0xFF 0xFF
Standard ID: 0x130       DLC: 5  Data: 0x00 0x0F 0x34 0x3F 0x02
Standard ID: 0x0C4       DLC: 7  Data: 0x00 0x80 0xFD 0x00 0x80 0xE3 0xFD
Standard ID: 0x0CE       DLC: 8  Data: 0x00 0x00 0x00 0x00 0x00 0x00 0x00 0x00
Standard ID: 0x1FE       DLC: 2  Data: 0xFF 0x00
Standard ID: 0x304       DLC: 2  Data: 0xE3 0xFF
Standard ID: 0x0FD       DLC: 3  Data: 0xFF 0xFF 0xFF
Standard ID: 0x1D0       DLC: 8  Data: 0x36 0xFF 0x48 0xB6 0x00 0x00 0xFD 0x10
Standard ID: 0x2CA       DLC: 2  Data: 0x5F 0xFF
Standard ID: 0x4C3       DLC: 8  Data: 0x44 0x52 0xFF 0xFF 0xFF 0xFF 0xFF 0xFF
Standard ID: 0x1A6       DLC: 8  Data: 0x00 0x00 0x00 0x00 0x00 0x00 0x54 0xFF
Standard ID: 0x0FD       DLC: 3  Data: 0xFF 0xFF 0xFF
Standard ID: 0x0FC       DLC: 3  Data: 0xFF 0xF8 0xFF
Standard ID: 0x130       DLC: 5  Data: 0x00 0x0F 0x34 0x3F 0x13
Standard ID: 0x0A8       DLC: 8  Data: 0x76 0xFB 0xF5 0xF0 0xF5 0xF1 0x03 0x00
Standard ID: 0x0AA       DLC: 8  Data: 0x21 0xFB 0xF5 0x00 0x00 0x00 0x84 0x00
Standard ID: 0x0CE       DLC: 8  Data: 0x00 0x00 0x00 0x00 0x00 0x00 0x00 0x00
Standard ID: 0x1D2       DLC: 6  Data: 0xF0 0x0F 0xFF 0xAC 0xF0 0xFF
Standard ID: 0x1A0       DLC: 8  Data: 0x00 0x80 0xFD 0x8F 0x00 0xF9 0xDF 0x89
Standard ID: 0x1D0       DLC: 8  Data: 0x36 0xFF 0x49 0xB6 0x00 0x00 0xFD 0x13
Standard ID: 0x0C0       DLC: 2  Data: 0xFA 0xFF
Standard ID: 0x1B5       DLC: 6  Data: 0xFF 0xFF 0x02 0x00 0x08 0xFF
Standard ID: 0x4C4       DLC: 8  Data: 0x45 0x42 0xFF 0xFF 0xFF 0xFF 0xFF 0xFF
Standard ID: 0x1A6       DLC: 8  Data: 0x00 0x00 0x00 0x00 0x00 0x00 0xE4 0xF0
Standard ID: 0x0FD       DLC: 3  Data: 0xFF 0xFF 0xFF
Standard ID: 0x0FC       DLC: 3  Data: 0xFF 0xF8 0xFF
Standard ID: 0x130       DLC: 5  Data: 0x00 0x0F 0x34 0x3F 0x24
Standard ID: 0x0A8       DLC: 8  Data: 0x71 0xF6 0xF5 0xF0 0xF5 0xF1 0x03 0x00
Standard ID: 0x0BE       DLC: 5  Data: 0xFF 0xFF 0xFF 0xFF 0xFF
Standard ID: 0x0E6       DLC: 8  Data: 0x81 0xFF 0xE7 0xFC 0xFF 0xFF 0xFF 0xFF
Standard ID: 0x1A0       DLC: 8  Data: 0x00 0x80 0x01 0xB0 0x00 0xFE 0x3F 0x12
Standard ID: 0x0AA       DLC: 8  Data: 0x1C 0xF6 0xF5 0x00 0x00 0x00 0x84 0x00
Standard ID: 0x1D0       DLC: 8  Data: 0x36 0xFF 0x49 0xB7 0x00 0x00 0xFD 0x16
Standard ID: 0x4C5       DLC: 8  Data: 0x60 0x52 0xFF 0xFF 0xFF 0xFF 0xFF 0xFF
Standard ID: 0x2FA       DLC: 5  Data: 0xFF 0xFC 0xFF 0xFF 0xFF
Standard ID: 0x1A6       DLC: 8  Data: 0x00 0x00 0x00 0x00 0x00 0x00 0x74 0xF2
Standard ID: 0x0FD       DLC: 3  Data: 0xFF 0xFF 0xFF
Standard ID: 0x0FC       DLC: 3  Data: 0xFF 0xF8 0xFF
Standard ID: 0x130       DLC: 5  Data: 0x00 0x0F 0x34 0x3F 0x35
Standard ID: 0x0A8       DLC: 8  Data: 0x6C 0xF1 0xF5 0xF0 0xF5 0xF1 0x03 0x00
Standard ID: 0x0AA       DLC: 8  Data: 0x17 0xF1 0xF5 0x00 0x00 0x00 0x84 0x00
Standard ID: 0x0CE       DLC: 8  Data: 0x00 0x00 0x00 0x00 0x00 0x00 0x00 0x00
Standard ID: 0x1D2       DLC: 6  Data: 0xF0 0x0F 0xFF 0xBC 0xF0 0xFF
Standard ID: 0x2FA       DLC: 5  Data: 0xFC 0xFC 0xFF 0xFF 0xFF
Standard ID: 0x1D0       DLC: 8  Data: 0x36 0xFF 0x4A 0xB6 0x00 0x00 0xFD 0x19
Standard ID: 0x2FC       DLC: 7  Data: 0x81 0x00 0x0D 0xFF 0xFF 0xFF 0xFF
Standard ID: 0x0C0       DLC: 2  Data: 0xFB 0xFF
Standard ID: 0x4E0       DLC: 8  Data: 0x62 0x52 0xFF 0xFF 0xFF 0xFF 0xFF 0xFF
Standard ID: 0x1A6       DLC: 8  Data: 0x00 0x00 0x00 0x00 0x00 0x00 0x04 0xF4
Standard ID: 0x0FD       DLC: 3  Data: 0xFF 0xFF 0xFF
Standard ID: 0x0FC       DLC: 3  Data: 0xFF 0xF8 0xFF
Standard ID: 0x130       DLC: 5  Data: 0x00 0x0F 0x34 0x3F 0x46
Standard ID: 0x1D6       DLC: 2  Data: 0xC0 0x00
Standard ID: 0x0AA       DLC: 8  Data: 0x21 0xFB 0xF5 0x00 0x00 0x00 0x84 0x00
Standard ID: 0x0C4       DLC: 7  Data: 0x00 0x80 0xFD 0x00 0x80 0xE3 0xFD
Standard ID: 0x1A0       DLC: 8  Data: 0x00 0x80 0x01 0xB0 0x00 0x00 0xD0 0xA4
Standard ID: 0x1EA       DLC: 2  Data: 0xFF 0xFF
Standard ID: 0x1D0       DLC: 8  Data: 0x36 0xFF 0x4A 0xB7 0x00 0x00 0xFD 0x1C
Standard ID: 0x4E2       DLC: 8  Data: 0x64 0x42 0xFF 0xFF 0xFF 0xFF 0xFF 0xFF
Standard ID: 0x1A6       DLC: 8  Data: 0x00 0x00 0x00 0x00 0x00 0x00 0x94 0xF5
Standard ID: 0x0FD       DLC: 3  Data: 0xFF 0xFF 0xFF
Standard ID: 0x0FC       DLC: 3  Data: 0xFF 0xF8 0xFF
Standard ID: 0x130       DLC: 5  Data: 0x00 0x0F 0x34 0x3F 0x57
Standard ID: 0x0A8       DLC: 8  Data: 0x71 0xF6 0xF5 0xF0 0xF5 0xF1 0x03 0x00
Standard ID: 0x0AA       DLC: 8  Data: 0x1C 0xF6 0xF5 0x00 0x00 0x00 0x84 0x00
Standard ID: 0x0CE       DLC: 8  Data: 0x00 0x00 0x00 0x00 0x00 0x00 0x00 0x00
Standard ID: 0x1D2       DLC: 6  Data: 0xF0 0x0F 0xFF 0xCC 0xF0 0xFF
Standard ID: 0x1A0       DLC: 8  Data: 0x00 0x80 0xFD 0xAF 0x00 0xF9 0x3F 0x09
Standard ID: 0x1D0       DLC: 8  Data: 0x36 0xFF 0x4B 0xB7 0x00 0x00 0xFD 0x1F
Standard ID: 0x4E4       DLC: 8  Data: 0x65 0x52 0xFF 0xFF 0xFF 0xFF 0xFF 0xFF
Standard ID: 0x0C0       DLC: 2  Data: 0xFC 0xFF
Standard ID: 0x1A6       DLC: 8  Data: 0x00 0x00 0x00 0x00 0x00 0x00 0x24 0xF7
Standard ID: 0x0FD       DLC: 3  Data: 0xFF 0xFF 0xFF
Standard ID: 0x0FC       DLC: 3  Data: 0xFF 0xF8 0xFF
Standard ID: 0x130       DLC: 5  Data: 0x00 0x0F 0x34 0x3F 0x68
Standard ID: 0x0A8       DLC: 8  Data: 0x6C 0xF1 0xF5 0xF0 0xF5 0xF1 0x03 0x00
Standard ID: 0x0BE       DLC: 5  Data: 0xFF 0xFF 0xFF 0xFF 0xFF
Standard ID: 0x0CE       DLC: 8  Data: 0x00 0x00 0x00 0x00 0x00 0x00 0x00 0x00
Standard ID: 0x1A0       DLC: 8  Data: 0x00 0x80 0x01 0x50 0x00 0xFE 0x8F 0x01
Standard ID: 0x0AA       DLC: 8  Data: 0x17 0xF1 0xF5 0x00 0x00 0x00 0x84 0x00
Standard ID: 0x4E5       DLC: 8  Data: 0x67 0x52 0xFF 0xFF 0xFF 0xFF 0xFF 0xFF
Standard ID: 0x1D0       DLC: 8  Data: 0x36 0xFF 0x4B 0xB6 0x00 0x00 0xFD 0x22
Standard ID: 0x328       DLC: 6  Data: 0xF3 0x02 0x00 0x00 0xB3 0x18
Standard ID: 0x1A6       DLC: 8  Data: 0x00 0x00 0x00 0x00 0x00 0x00 0xB4 0xF8
Standard ID: 0x0FD       DLC: 3  Data: 0xFF 0xFF 0xFF
Standard ID: 0x0FC       DLC: 3  Data: 0xFF 0xF8 0xFF
Standard ID: 0x130       DLC: 5  Data: 0x00 0x0F 0x34 0x3F 0x79
Standard ID: 0x0A8       DLC: 8  Data: 0x76 0xFB 0xF5 0xF0 0xF5 0xF1 0x03 0x00
Standard ID: 0x0AA       DLC: 8  Data: 0x21 0xFB 0xF5 0x00 0x00 0x00 0x84 0x00
Standard ID: 0x0CE       DLC: 8  Data: 0x00 0x00 0x00 0x00 0x00 0x00 0x00 0x00
Standard ID: 0x1D2       DLC: 6  Data: 0xF0 0x0F 0xFF 0xDC 0xF0 0xFF
Standard ID: 0x4E7       DLC: 8  Data: 0x70 0x52 0xFF 0xFF 0xFF 0xFF 0xFF 0xFF
Standard ID: 0x5E7       DLC: 8  Data: 0x01 0x01 0xAA 0xFF 0xFF 0xFF 0xFF 0xFF
Standard ID: 0x1D0       DLC: 8  Data: 0x36 0xFF 0x4C 0xB7 0x00 0x00 0xFD 0x25
Standard ID: 0x1A0       DLC: 8  Data: 0x00 0x80 0x01 0xA0 0x00 0xFE 0xDF 0xA2
Standard ID: 0x0C0       DLC: 2  Data: 0xFD 0xFF
Standard ID: 0x1A6       DLC: 8  Data: 0x00 0x00 0x00 0x00 0x00 0x00 0x44 0xFA
Standard ID: 0x0FD       DLC: 3  Data: 0xFF 0xFF 0xFF
Standard ID: 0x0FC       DLC: 3  Data: 0xFF 0xF8 0xFF
Standard ID: 0x130       DLC: 5  Data: 0x00 0x0F 0x34 0x3F 0x8A
Standard ID: 0x0A8       DLC: 8  Data: 0x71 0xF6 0xF5 0xF0 0xF5 0xF1 0x03 0x00
Standard ID: 0x0BE       DLC: 5  Data: 0xFF 0xFF 0xFF 0xFF 0xFF
Standard ID: 0x0CE       DLC: 8  Data: 0x00 0x00 0x00 0x00 0x00 0x00 0x00 0x00
Standard ID: 0x1A0       DLC: 8  Data: 0x00 0x80 0x01 0xA0 0x00 0x00 0x30 0xF3
Standard ID: 0x4F0       DLC: 8  Data: 0x72 0x52 0xFF 0xFF 0xFF 0xFF 0xFF 0xFF
Standard ID: 0x1D0       DLC: 8  Data: 0x36 0xFF 0x4C 0xB7 0x00 0x00 0xFD 0x28
Standard ID: 0x0AA       DLC: 8  Data: 0x1C 0xF6 0xF5 0x00 0x00 0x00 0x84 0x00
Standard ID: 0x1A6       DLC: 8  Data: 0x00 0x00 0x00 0x00 0x00 0x00 0xD4 0xFB
Standard ID: 0x0FD       DLC: 3  Data: 0xFF 0xFF 0xFF
Standard ID: 0x0FC       DLC: 3  Data: 0xFF 0xF8 0xFF
Standard ID: 0x130       DLC: 5  Data: 0x00 0x0F 0x34 0x3F 0x9B
Standard ID: 0x0A8       DLC: 8  Data: 0x6C 0xF1 0xF5 0xF0 0xF5 0xF1 0x03 0x00
Standard ID: 0x0AA       DLC: 8  Data: 0x17 0xF1 0xF5 0x00 0x00 0x00 0x84 0x00
Standard ID: 0x4F2       DLC: 8  Data: 0x73 0x52 0xFF 0xFF 0xFF 0xFF 0xFF 0xFF
Standard ID: 0x1A0       DLC: 8  Data: 0x00 0x80 0x01 0x50 0x00 0xF9 0x8F 0xFC
Standard ID: 0x1D2       DLC: 6  Data: 0xF0 0x0F 0xFF 0xEC 0xF0 0xFF
Standard ID: 0x1D0       DLC: 8  Data: 0x36 0xFF 0x4D 0xB6 0x00 0x00 0xFD 0x2B
Standard ID: 0x0CE       DLC: 8  Data: 0x00 0x00 0x00 0x00 0x00 0x00 0x00 0x00
Standard ID: 0x0C0       DLC: 2  Data: 0xFE 0xFF
Standard ID: 0x1A6       DLC: 8  Data: 0x00 0x00 0x00 0x00 0x00 0x00 0x64 0xFD
Standard ID: 0x0FD       DLC: 3  Data: 0xFF 0xFF 0xFF
Standard ID: 0x0FC       DLC: 3  Data: 0xFF 0xF8 0xFF
Standard ID: 0x4F3       DLC: 8  Data: 0x78 0x52 0xFF 0x01 0xFF 0xFF 0xFF 0xFF
Standard ID: 0x130       DLC: 5  Data: 0x00 0x0F 0x34 0x3F 0xAC
Standard ID: 0x0BE       DLC: 5  Data: 0xFF 0xFF 0xFF 0xFF 0xFF
Standard ID: 0x0CE       DLC: 8  Data: 0x00 0x00 0x00 0x00 0x00 0x00 0x00 0x00
Standard ID: 0x1A0       DLC: 8  Data: 0x00 0x80 0x01 0x80 0x00 0xF7 0xDF 0x7B
Standard ID: 0x304       DLC: 2  Data: 0xE3 0xFF
Standard ID: 0x0A8       DLC: 8  Data: 0x76 0xFB 0xF5 0xF0 0xF5 0xF1 0x03 0x00
Standard ID: 0x1D0       DLC: 8  Data: 0x36 0xFF 0x4D 0xB6 0x00 0x00 0xFD 0x2E
Standard ID: 0x2CA       DLC: 2  Data: 0x5F 0xFF
Standard ID: 0x4F8       DLC: 8  Data: 0x00 0x52 0xFF 0xFF 0xFF 0xFF 0xFF 0xFF
Standard ID: 0x1A6       DLC: 8  Data: 0x00 0x00 0x00 0x00 0x00 0x00 0xF4 0xFE
Standard ID: 0x0FD       DLC: 3  Data: 0xFF 0xFF 0xFF
Standard ID: 0x0FC       DLC: 3  Data: 0xFF 0xF8 0xFF
Standard ID: 0x130       DLC: 5  Data: 0x00 0x0F 0x34 0x3F 0xCD
Standard ID: 0x0AA       DLC: 8  Data: 0x1C 0xF6 0xF5 0x00 0x00 0x00 0x84 0x00
Standard ID: 0x0CE       DLC: 8  Data: 0x00 0x00 0x00 0x00 0x00 0x00 0x00 0x00
Standard ID: 0x1A0       DLC: 8  Data: 0x00 0x80 0x01 0xA0 0x00 0xFE 0x3F 0x01
Standard ID: 0x1D2       DLC: 6  Data: 0xF0 0x0F 0xFF 0x0C 0xF0 0xFF
Standard ID: 0x0A8       DLC: 8  Data: 0x71 0xF6 0xF5 0xF0 0xF5 0xF1 0x03 0x00
Standard ID: 0x1D0       DLC: 8  Data: 0x36 0xFF 0x4E 0xB7 0x00 0x00 0xFD 0x31
Standard ID: 0x0C0       DLC: 2  Data: 0xF0 0xFF
Standard ID: 0x1B5       DLC: 6  Data: 0xFF 0xFF 0x02 0x00 0x08 0xFF
Standard ID: 0x480       DLC: 8  Data: 0x38 0x42 0xFF 0x01 0xFF 0xFF 0xFF 0xFF
Standard ID: 0x1A6       DLC: 8  Data: 0x00 0x00 0x00 0x00 0x00 0x00 0x84 0xF0
Standard ID: 0x0FD       DLC: 3  Data: 0xFF 0xFF 0xFF
Standard ID: 0x0FC       DLC: 3  Data: 0xFF 0xF8 0xFF
Standard ID: 0x130       DLC: 5  Data: 0x00 0x0F 0x34 0x3F 0xDE
Standard ID: 0x0A8       DLC: 8  Data: 0x6C 0xF1 0xF5 0xF0 0xF5 0xF1 0x03 0x00
Standard ID: 0x0BE       DLC: 5  Data: 0xFF 0xFF 0xFF 0xFF 0xFF
Standard ID: 0x0CE       DLC: 8  Data: 0x00 0x00 0x00 0x00 0x00 0x00 0x00 0x00
Standard ID: 0x1A0       DLC: 8  Data: 0x00 0x80 0x01 0x70 0x00 0xFE 0x8F 0x22
Standard ID: 0x242       DLC: 3  Data: 0x3F 0xFC 0xFF
Standard ID: 0x0AA       DLC: 8  Data: 0x17 0xF1 0xF5 0x00 0x00 0x00 0x84 0x00
Standard ID: 0x1D0       DLC: 8  Data: 0x36 0xFF 0x4E 0xB6 0x00 0x00 0xFD 0x34
Standard ID: 0x4B8       DLC: 8  Data: 0x40 0x52 0xFF 0x01 0xFF 0xFF 0xFF 0xFF
Standard ID: 0x5C0       DLC: 8  Data: 0x04 0x00 0x32 0xFF 0xFF 0xFF 0xF4 0xFF
Standard ID: 0x1A6       DLC: 8  Data: 0x00 0x00 0x00 0x00 0x00 0x00 0x14 0xF2
Standard ID: 0x0FD       DLC: 3  Data: 0xFF 0xFF 0xFF
Standard ID: 0x0FC       DLC: 3  Data: 0xFF 0xF8 0xFF
Standard ID: 0x130       DLC: 5  Data: 0x00 0x0F 0x34 0x3F 0xE0
Standard ID: 0x0A8       DLC: 8  Data: 0x76 0xFB 0xF5 0xF0 0xF5 0xF1 0x03 0x00
Standard ID: 0x0AA       DLC: 8  Data: 0x21 0xFB 0xF5 0x00 0x00 0x00 0x84 0x00
Standard ID: 0x0CE       DLC: 8  Data: 0x00 0x00 0x00 0x00 0x00 0x00 0x00 0x00
Standard ID: 0x1A0       DLC: 8  Data: 0x00 0x80 0x01 0x70 0x00 0xFE 0xDF 0x72
Standard ID: 0x1D2       DLC: 6  Data: 0xF0 0x0F 0xFF 0x1C 0xF0 0xFF
Standard ID: 0x1D0       DLC: 8  Data: 0x36 0xFF 0x40 0xB7 0x00 0x00 0xFD 0x37
Standard ID: 0x4C0       DLC: 8  Data: 0x43 0x42 0xFF 0x01 0x20 0x01 0xFA 0x00
Standard ID: 0x1B6       DLC: 7  Data: 0xFF 0xFF 0x00 0xFF 0x00 0xFC 0x00
Standard ID: 0x0C0       DLC: 2  Data: 0xF1 0xFF
Standard ID: 0x31D       DLC: 2  Data: 0x00 0xFE
Standard ID: 0x242       DLC: 3  Data: 0x3F 0xFC 0xFF
Standard ID: 0x1A6       DLC: 8  Data: 0x00 0x00 0x00 0x00 0x00 0x00 0xA4 0xF3
Standard ID: 0x0FD       DLC: 3  Data: 0xFF 0xFF 0xFF
Standard ID: 0x0FC       DLC: 3  Data: 0xFF 0xF8 0xFF
Standard ID: 0x130       DLC: 5  Data: 0x00 0x0F 0x34 0x3F 0xF1
Standard ID: 0x1D6       DLC: 2  Data: 0xC0 0x00
Standard ID: 0x0AA       DLC: 8  Data: 0x1C 0xF6 0xF5 0x00 0x00 0x00 0x84 0x00
Standard ID: 0x0C4       DLC: 7  Data: 0x00 0x80 0xFD 0x00 0x80 0xE3 0xFD
Standard ID: 0x1A0       DLC: 8  Data: 0x00 0x80 0x01 0xA0 0x00 0xF9 0x3F 0xFC
Standard ID: 0x1EA       DLC: 2  Data: 0xFF 0xFF
Standard ID: 0x4C3       DLC: 8  Data: 0x44 0x52 0xFF 0x01 0xFF 0xFF 0xFF 0xFF
Standard ID: 0x1D0       DLC: 8  Data: 0x36 0xFF 0x40 0xB7 0x00 0x00 0xFD 0x3A
Standard ID: 0x1A6       DLC: 8  Data: 0x00 0x00 0x00 0x00 0x00 0x00 0x34 0xF5
Standard ID: 0x0FD       DLC: 3  Data: 0xFF 0xFF 0xFF
Standard ID: 0x0FC       DLC: 3  Data: 0xFF 0xF8 0xFF
Standard ID: 0x130       DLC: 5  Data: 0x00 0x0F 0x34 0x3F 0x02
Standard ID: 0x0A8       DLC: 8  Data: 0x6C 0xF1 0xF5 0xF0 0xF5 0xF1 0x03 0x00
Standard ID: 0x0AA       DLC: 8  Data: 0x17 0xF1 0xF5 0x00 0x00 0x00 0x84 0x00
Standard ID: 0x0CE       DLC: 8  Data: 0x00 0x00 0x00 0x00 0x00 0x00 0x00 0x00
Standard ID: 0x1D2       DLC: 6  Data: 0xF0 0x0F 0xFF 0x2C 0xF0 0xFF
Standard ID: 0x228       DLC: 2  Data: 0x00 0x00
Standard ID: 0x2F7       DLC: 4  Data: 0x00 0xFF 0xFF 0xFF
Standard ID: 0x1D0       DLC: 8  Data: 0x36 0xFF 0x41 0xB7 0x00 0x00 0xFD 0x3D
Standard ID: 0x242       DLC: 3  Data: 0x3F 0xFC 0xFF
Standard ID: 0x1A0       DLC: 8  Data: 0x00 0x80 0x01 0x80 0x00 0xFE 0x8F 0x32
Standard ID: 0x0C0       DLC: 2  Data: 0xF2 0xFF
Standard ID: 0x1A6       DLC: 8  Data: 0x00 0x00 0x00 0x00 0x00 0x00 0xC4 0xF6
Standard ID: 0x0FD       DLC: 3  Data: 0xFF 0xFF 0xFF
Standard ID: 0x0FC       DLC: 3  Data: 0xFF 0xF8 0xFF
Standard ID: 0x130       DLC: 5  Data: 0x00 0x0F 0x34 0x3F 0x13
Standard ID: 0x0A8       DLC: 8  Data: 0x76 0xFB 0xF5 0xF0 0xF5 0xF1 0x03 0x00
Standard ID: 0x0BE       DLC: 5  Data: 0xFF 0xFF 0xFF 0xFF 0xFF
Standard ID: 0x0CE       DLC: 8  Data: 0x00 0x00 0x00 0x00 0x00 0x00 0x00 0x00
Standard ID: 0x1A0       DLC: 8  Data: 0x00 0x80 0x01 0x70 0x00 0x00 0xD0 0x64
Standard ID: 0x0AA       DLC: 8  Data: 0x21 0xFB 0xF5 0x00 0x00 0x00 0x84 0x00
Standard ID: 0x4C5       DLC: 8  Data: 0x60 0x52 0xFF 0xFF 0xFF 0xFF 0xFF 0xFF
Standard ID: 0x1D0       DLC: 8  Data: 0x36 0xFF 0x41 0xB7 0x00 0x00 0xFD 0x40
Standard ID: 0x328       DLC: 6  Data: 0xF4 0x02 0x00 0x00 0xB3 0x18
Standard ID: 0x1A6       DLC: 8  Data: 0x00 0x00 0x00 0x00 0x00 0x00 0x54 0xF8
Standard ID: 0x0FD       DLC: 3  Data: 0xFF 0xFF 0xFF
Standard ID: 0x0FC       DLC: 3  Data: 0xFF 0xF8 0xFF
Standard ID: 0x130       DLC: 5  Data: 0x00 0x0F 0x34 0x3F 0x24
Standard ID: 0x0A8       DLC: 8  Data: 0x71 0xF6 0xF5 0xF0 0xF5 0xF1 0x03 0x00
Standard ID: 0x1AA       DLC: 8  Data: 0xFE 0x02 0xFF 0xFF 0xFF 0xFF 0xFF 0xFF
Standard ID: 0x0CE       DLC: 8  Data: 0x00 0x00 0x00 0x00 0x00 0x00 0x00 0x00
Standard ID: 0x1D2       DLC: 6  Data: 0xF0 0x0F 0xFF 0x3C 0xF0 0xFF
Standard ID: 0x1B8       DLC: 6  Data: 0x0F 0xC0 0x00 0x00 0x20 0x6F
Standard ID: 0x1D0       DLC: 8  Data: 0x36 0xFF 0x42 0xB7 0x00 0x00 0xFD 0x43
Standard ID: 0x0AA       DLC: 8  Data: 0x1C 0xF6 0xF5 0x00 0x00 0x00 0x84 0x00
Standard ID: 0x0C0       DLC: 2  Data: 0xF3 0xFF
Standard ID: 0x1A6       DLC: 8  Data: 0x00 0x00 0x00 0x00 0x00 0x00 0xE4 0xF9
Standard ID: 0x0FD       DLC: 3  Data: 0xFF 0xFF 0xFF
Standard ID: 0x0FC       DLC: 3  Data: 0xFF 0xF8 0xFF
Standard ID: 0x130       DLC: 5  Data: 0x00 0x0F 0x34 0x3F 0x35
Standard ID: 0x0A8       DLC: 8  Data: 0x6C 0xF1 0xF5 0xF0 0xF5 0xF1 0x03 0x00
Standard ID: 0x0BE       DLC: 5  Data: 0xFF 0xFF 0xFF 0xFF 0xFF
Standard ID: 0x0CE       DLC: 8  Data: 0x00 0x00 0x00 0x00 0x00 0x00 0x00 0x00
Standard ID: 0x1A0       DLC: 8  Data: 0x00 0x80 0x01 0x80 0x00 0xF9 0x8F 0x2D
Standard ID: 0x0AA       DLC: 8  Data: 0x17 0xF1 0xF5 0x00 0x00 0x00 0x84 0x00
Standard ID: 0x1D0       DLC: 8  Data: 0x36 0xFF 0x42 0xB7 0x00 0x00 0xFD 0x46
Standard ID: 0x1A6       DLC: 8  Data: 0x00 0x00 0x00 0x00 0x00 0x00 0x74 0xFB
Standard ID: 0x0FD       DLC: 3  Data: 0xFF 0xFF 0xFF
Standard ID: 0x0FC       DLC: 3  Data: 0xFF 0xF8 0xFF
Standard ID: 0x130       DLC: 5  Data: 0x00 0x0F 0x34 0x3F 0x46
Standard ID: 0x0A8       DLC: 8  Data: 0x76 0xFB 0xF5 0xF0 0xF5 0xF1 0x03 0x00
Standard ID: 0x0AA       DLC: 8  Data: 0x21 0xFB 0xF5 0x00 0x00 0x00 0x84 0x00
Standard ID: 0x0CE       DLC: 8  Data: 0x00 0x00 0x00 0x00 0x00 0x00 0x00 0x00
Standard ID: 0x1D2       DLC: 6  Data: 0xF0 0x0F 0xFF 0x4C 0xF0 0xFF
Standard ID: 0x4E4       DLC: 8  Data: 0x65 0x52 0xFF 0x01 0xFF 0xFF 0xFF 0xFF
Standard ID: 0x1D0       DLC: 8  Data: 0x36 0xFF 0x43 0xB7 0x00 0x00 0xFD 0x49
Standard ID: 0x0C0       DLC: 2  Data: 0xF4 0xFF
Standard ID: 0x2F7       DLC: 4  Data: 0x01 0xFF 0xFF 0xFF
Standard ID: 0x580       DLC: 8  Data: 0x04 0x11 0x04 0x01 0x05 0xFF 0x00 0xF0
Standard ID: 0x1A6       DLC: 8  Data: 0x00 0x00 0x00 0x00 0x00 0x00 0x04 0xFD
Standard ID: 0x0FD       DLC: 3  Data: 0xFF 0xFF 0xFF
Standard ID: 0x0FC       DLC: 3  Data: 0xFF 0xF8 0xFF
Standard ID: 0x26E       DLC: 8  Data: 0x00 0x00 0x00 0x50 0xFF 0xFF 0xFF 0xFF
Standard ID: 0x130       DLC: 5  Data: 0x00 0x0F 0x34 0x3F 0x57
Standard ID: 0x0BE       DLC: 5  Data: 0xFF 0xFF 0xFF 0xFF 0xFF
Standard ID: 0x0CE       DLC: 8  Data: 0x00 0x00 0x00 0x00 0x00 0x00 0x00 0x00
Standard ID: 0x4E5       DLC: 8  Data: 0x67 0x52 0xFF 0x01 0xFF 0xFF 0xFF 0xFF
Standard ID: 0x304       DLC: 2  Data: 0xE3 0xFF
Standard ID: 0x0A8       DLC: 8  Data: 0x71 0xF6 0xF5 0xF0 0xF5 0xF1 0x03 0x00
Standard ID: 0x1D0       DLC: 8  Data: 0x36 0xFF 0x43 0xB7 0x00 0x00 0xFD 0x4C
Standard ID: 0x2CA       DLC: 2  Data: 0x5F 0xFF
Standard ID: 0x2F7       DLC: 4  Data: 0x01 0xD9 0x49 0xFF
Standard ID: 0x1A6       DLC: 8  Data: 0x00 0x00 0x00 0x00 0x00 0x00 0x94 0xFE
Standard ID: 0x0FD       DLC: 3  Data: 0xFF 0xFF 0xFF
Standard ID: 0x0FC       DLC: 3  Data: 0xFF 0xF8 0xFF
Standard ID: 0x130       DLC: 5  Data: 0x00 0x0F 0x34 0x3F 0x68
Standard ID: 0x4E7       DLC: 8  Data: 0x70 0x52 0xFF 0x01 0xFF 0xFF 0xFF 0xFF
Standard ID: 0x0AA       DLC: 8  Data: 0x17 0xF1 0xF5 0x00 0x00 0x00 0x84 0x00
Standard ID: 0x0CE       DLC: 8  Data: 0x00 0x00 0x00 0x00 0x00 0x00 0x00 0x00
Standard ID: 0x1D2       DLC: 6  Data: 0xF0 0x0F 0xFF 0x5C 0xF0 0xFF
Standard ID: 0x0A8       DLC: 8  Data: 0x6C 0xF1 0xF5 0xF0 0xF5 0xF1 0x03 0x00
Standard ID: 0x1D0       DLC: 8  Data: 0x36 0xFF 0x44 0xB7 0x00 0x00 0xFD 0x4F
Standard ID: 0x0C0       DLC: 2  Data: 0xF5 0xFF
Standard ID: 0x1B5       DLC: 6  Data: 0xFF 0xFF 0x02 0x00 0x08 0xFF
Standard ID: 0x4F0       DLC: 8  Data: 0x72 0x52 0xFF 0x01 0x00 0xA4 0x84 0x00
Standard ID: 0x1A6       DLC: 8  Data: 0x00 0x00 0x00 0x00 0x00 0x00 0x24 0xF0
Standard ID: 0x0FD       DLC: 3  Data: 0xFF 0xFF 0xFF
Standard ID: 0x0FC       DLC: 3  Data: 0xFF 0xF8 0xFF
Standard ID: 0x130       DLC: 5  Data: 0x00 0x0F 0x34 0x3F 0x79
Standard ID: 0x0AA       DLC: 8  Data: 0x21 0xFB 0xF5 0x00 0x00 0x00 0x84 0x00
Standard ID: 0x0C4       DLC: 7  Data: 0x00 0x80 0xFD 0x00 0x80 0xE3 0xFD
Standard ID: 0x1A0       DLC: 8  Data: 0x00 0x80 0xFD 0x7F 0x00 0xF9 0xDF 0x79
Standard ID: 0x2CE       DLC: 3  Data: 0x80 0x80 0xF0
Standard ID: 0x33A       DLC: 5  Data: 0x38 0x42 0x81 0x4D 0x7F
Standard ID: 0x1D0       DLC: 8  Data: 0x36 0xFF 0x44 0xB7 0x00 0x00 0xFD 0x52
Standard ID: 0x0A8       DLC: 8  Data: 0x76 0xFB 0xF5 0xF0 0xF5 0xF1 0x03 0x00
Standard ID: 0x5E2       DLC: 8  Data: 0x01 0x02 0x3A 0xFF 0xFF 0xFF 0xFF 0xFF
Standard ID: 0x23A       DLC: 4  Data: 0xFF 0xFF 0xFF 0xFF
Standard ID: 0x4F2       DLC: 8  Data: 0x73 0x52 0xFF 0x01 0x00 0x00 0x00 0x00
Standard ID: 0x1A6       DLC: 8  Data: 0x00 0x00 0x00 0x00 0x00 0x00 0xB4 0xF1
Standard ID: 0x0FD       DLC: 3  Data: 0xFF 0xFF 0xFF
Standard ID: 0x0FC       DLC: 3  Data: 0xFF 0xF8 0xFF
Standard ID: 0x130       DLC: 5  Data: 0x00 0x0F 0x34 0x3F 0x8A
Standard ID: 0x0A8       DLC: 8  Data: 0x71 0xF6 0xF5 0xF0 0xF5 0xF1 0x03 0x00
Standard ID: 0x0AA       DLC: 8  Data: 0x1C 0xF6 0xF5 0x00 0x00 0x00 0x84 0x00
Standard ID: 0x0CE       DLC: 8  Data: 0x00 0x00 0x00 0x00 0x00 0x00 0x00 0x00
Standard ID: 0x1D2       DLC: 6  Data: 0xF0 0x0F 0xFF 0x6C 0xF0 0xFF
Standard ID: 0x1B6       DLC: 7  Data: 0xFF 0xFF 0x00 0xFF 0x00 0xFC 0x00
Standard ID: 0x1D0       DLC: 8  Data: 0x36 0xFF 0x45 0xB7 0x00 0x00 0xFD 0x55
Standard ID: 0x0C0       DLC: 2  Data: 0xF6 0xFF
Standard ID: 0x4F3       DLC: 8  Data: 0x78 0x52 0xFF 0x01 0xFF 0xFF 0xFF 0xFF
Standard ID: 0x33A       DLC: 5  Data: 0x38 0x42 0x81 0x4D 0x7F
Standard ID: 0x1A6       DLC: 8  Data: 0x00 0x00 0x00 0x00 0x00 0x00 0x44 0xF3
Standard ID: 0x0FD       DLC: 3  Data: 0xFF 0xFF 0xFF
Standard ID: 0x0FC       DLC: 3  Data: 0xFF 0xF8 0xFF
Standard ID: 0x130       DLC: 5  Data: 0x00 0x0F 0x34 0x3F 0x9B
Standard ID: 0x2A6       DLC: 2  Data: 0x00 0xFC
Standard ID: 0x0BE       DLC: 5  Data: 0xFF 0xFF 0xFF 0xFF 0xFF
Standard ID: 0x0CE       DLC: 8  Data: 0x00 0x00 0x00 0x00 0x00 0x00 0x00 0x00
Standard ID: 0x1A0       DLC: 8  Data: 0x00 0x80 0x01 0xA0 0x00 0x00 0x80 0x44
Standard ID: 0x1D6       DLC: 2  Data: 0xC0 0x00
Standard ID: 0x1D0       DLC: 8  Data: 0x36 0xFF 0x45 0xB7 0x00 0x00 0xFD 0x58
Standard ID: 0x4F8       DLC: 8  Data: 0x00 0x52 0xFF 0x01 0xFF 0xFF 0xFF 0xFF
Standard ID: 0x1A6       DLC: 8  Data: 0x00 0x00 0x00 0x00 0x00 0x00 0xD4 0xF4
Standard ID: 0x0FD       DLC: 3  Data: 0xFF 0xFF 0xFF
Standard ID: 0x0FC       DLC: 3  Data: 0xFF 0xF8 0xFF
Standard ID: 0x130       DLC: 5  Data: 0x00 0x0F 0x34 0x3F 0xAC
Standard ID: 0x0A8       DLC: 8  Data: 0x76 0xFB 0xF5 0xF0 0xF5 0xF1 0x03 0x00
Standard ID: 0x0AA       DLC: 8  Data: 0x21 0xFB 0xF5 0x00 0x00 0x00 0x84 0x00
Standard ID: 0x0CE       DLC: 8  Data: 0x00 0x00 0x00 0x00 0x00 0x00 0x00 0x00
Standard ID: 0x480       DLC: 8  Data: 0x38 0x42 0xFF 0x01 0xFF 0xFF 0xFF 0xFF
Standard ID: 0x1A0       DLC: 8  Data: 0x00 0x80 0xFC 0x8F 0x00 0xF9 0xDF 0x88
Standard ID: 0x1D0       DLC: 8  Data: 0x36 0xFF 0x46 0xB7 0x00 0x00 0xFD 0x5B
Standard ID: 0x33A       DLC: 5  Data: 0x38 0x42 0x81 0x4D 0x7F
Standard ID: 0x0C0       DLC: 2  Data: 0xF7 0xFF
Standard ID: 0x1AA       DLC: 8  Data: 0xFE 0x02 0xFF 0xFF 0xFF 0xFF 0xFF 0xFF
Standard ID: 0x1A6       DLC: 8  Data: 0x00 0x00 0x00 0x00 0x00 0x00 0x64 0xF6
Standard ID: 0x0FD       DLC: 3  Data: 0xFF 0xFF 0xFF
Standard ID: 0x1B8       DLC: 6  Data: 0x0F 0xC0 0x00 0x00 0x21 0x6F
Standard ID: 0x130       DLC: 5  Data: 0x00 0x0F 0x34 0x3F 0xCD
Standard ID: 0x0AA       DLC: 8  Data: 0x1C 0xF6 0xF5 0x00 0x00 0x00 0x84 0x00
Standard ID: 0x0C8       DLC: 6  Data: 0x00 0x80 0xFD 0x00 0x80 0xA5
Standard ID: 0x4B8       DLC: 8  Data: 0x40 0x52 0xFF 0x01 0xFF 0xFF 0xFF 0xFF
Standard ID: 0x0FC       DLC: 3  Data: 0xFF 0xF8 0xFF
Standard ID: 0x1D0       DLC: 8  Data: 0x36 0xFF 0x46 0xB7 0x00 0x00 0xFD 0x5E
Standard ID: 0x328       DLC: 6  Data: 0xF5 0x02 0x00 0x00 0xB3 0x18
Standard ID: 0x1A6       DLC: 8  Data: 0x00 0x00 0x00 0x00 0x00 0x00 0xF4 0xF7
Standard ID: 0x0FD       DLC: 3  Data: 0xFF 0xFF 0xFF
Standard ID: 0x0FC       DLC: 3  Data: 0xFF 0xF8 0xFF
Standard ID: 0x130       DLC: 5  Data: 0x00 0x0F 0x34 0x3F 0xDE
Standard ID: 0x0A8       DLC: 8  Data: 0x6C 0xF1 0xF5 0xF0 0xF5 0xF1 0x03 0x00
Standard ID: 0x0AA       DLC: 8  Data: 0x17 0xF1 0xF5 0x00 0x00 0x00 0x84 0x00
Standard ID: 0x0CE       DLC: 8  Data: 0x00 0x00 0x00 0x00 0x00 0x00 0x00 0x00
Standard ID: 0x1D2       DLC: 6  Data: 0xF0 0x0F 0xFF 0x8C 0xF0 0xFF
Standard ID: 0x4C0       DLC: 8  Data: 0x43 0x42 0xFF 0x01 0x20 0x01 0xFA 0x00
Standard ID: 0x1D0       DLC: 8  Data: 0x36 0xFF 0x47 0xB7 0x00 0x00 0xFD 0x61
Standard ID: 0x0C0       DLC: 2  Data: 0xF8 0xFF
Standard ID: 0x1A6       DLC: 8  Data: 0x00 0x00 0x00 0x00 0x00 0x00 0x84 0xF9
Standard ID: 0x0FD       DLC: 3  Data: 0xFF 0xFF 0xFF
Standard ID: 0x0FC       DLC: 3  Data: 0xFF 0xF8 0xFF
Standard ID: 0x4C3       DLC: 8  Data: 0x44 0x52 0xFF 0x01 0xFF 0xFF 0xFF 0xFF
Standard ID: 0x130       DLC: 5  Data: 0x00 0x0F 0x34 0x3F 0xE0
Standard ID: 0x0BE       DLC: 5  Data: 0xFF 0xFF 0xFF 0xFF 0xFF
Standard ID: 0x0CE       DLC: 8  Data: 0x00 0x00 0x00 0x00 0x00 0x00 0x00 0x00
Standard ID: 0x1A0       DLC: 8  Data: 0x00 0x80 0x01 0x80 0x00 0x00 0xD0 0x74
Standard ID: 0x0A8       DLC: 8  Data: 0x76 0xFB 0xF5 0xF0 0xF5 0xF1 0x03 0x00
Standard ID: 0x1D0       DLC: 8  Data: 0x36 0xFF 0x47 0xB7 0x00 0x00 0xFD 0x64
Standard ID: 0x4C4       DLC: 8  Data: 0x45 0x52 0xFF 0x01 0xFF 0xFF 0xFF 0xFF
Standard ID: 0x1A6       DLC: 8  Data: 0x00 0x00 0x00 0x00 0x00 0x00 0x14 0xFB
Standard ID: 0x0FC       DLC: 3  Data: 0xFF 0xF8 0xFF
Standard ID: 0x130       DLC: 5  Data: 0x00 0x0F 0x34 0x3F 0xF1
Standard ID: 0x0A8       DLC: 8  Data: 0x71 0xF6 0xF5 0xF0 0xF5 0xF1 0x03 0x00
Standard ID: 0x0AA       DLC: 8  Data: 0x1C 0xF6 0xF5 0x00 0x00 0x00 0x84 0x00
Standard ID: 0x0CE       DLC: 8  Data: 0x00 0x00 0x00 0x00 0x00 0x00 0x00 0x00
Standard ID: 0x1D2       DLC: 6  Data: 0xF0 0x0F 0xFF 0x9C 0xF0 0xFF
Standard ID: 0x0FD       DLC: 3  Data: 0xFF 0xFF 0xFF
Standard ID: 0x1D0       DLC: 8  Data: 0x36 0xFF 0x48 0xB7 0x00 0x00 0xFD 0x67
Standard ID: 0x0C0       DLC: 2  Data: 0xF9 0xFF
Standard ID: 0x4C5       DLC: 8  Data: 0x60 0x52 0xFF 0xFF 0xFF 0xFF 0xFF 0xFF
Standard ID: 0x1A6       DLC: 8  Data: 0x00 0x00 0x00 0x00 0x00 0x00 0xA4 0xFC
Standard ID: 0x3BD       DLC: 2  Data: 0xFD 0xFF
Standard ID: 0x0FD       DLC: 3  Data: 0xFF 0xFF 0xFF
Standard ID: 0x2FC       DLC: 7  Data: 0x81 0x00 0x0D 0xFF 0xFF 0xFF 0xFF
Standard ID: 0x0AA       DLC: 8  Data: 0x17 0xF1 0xF5 0x00 0x00 0x00 0x84 0x00
Standard ID: 0x0C8       DLC: 6  Data: 0x00 0x80 0xFD 0x00 0x80 0xE5
Standard ID: 0x1A0       DLC: 8  Data: 0x00 0x80 0x00 0x80 0x00 0xF9 0x8F 0x2C
Standard ID: 0x304       DLC: 2  Data: 0xE3 0xFF
Standard ID: 0x0FC       DLC: 3  Data: 0xFF 0xF8 0xFF
Standard ID: 0x1D0       DLC: 8  Data: 0x36 0xFF 0x48 0xB7 0x00 0x00 0xFD 0x6A
Standard ID: 0x2CA       DLC: 2  Data: 0x5F 0xFF
Standard ID: 0x4E0       DLC: 8  Data: 0x62 0x52 0xFF 0x01 0xFF 0xFF 0xFF 0xFF
Standard ID: 0x1A6       DLC: 8  Data: 0x00 0x00 0x00 0x00 0x00 0x00 0x34 0xFE
Standard ID: 0x31D       DLC: 2  Data: 0x00 0xFE
Standard ID: 0x0FC       DLC: 3  Data: 0xFF 0xF8 0xFF
Standard ID: 0x0FD       DLC: 3  Data: 0xFF 0xFF 0xFF
Standard ID: 0x130       DLC: 5  Data: 0x00 0x0F 0x34 0x3F 0x13
Standard ID: 0x0AA       DLC: 8  Data: 0x21 0xFB 0xF5 0x00 0x00 0x00 0x84 0x00
Standard ID: 0x0CE       DLC: 8  Data: 0x00 0x00 0x00 0x00 0x00 0x00 0x00 0x00
Standard ID: 0x1A0       DLC: 8  Data: 0x00 0x80 0x01 0x80 0x00 0x00 0xD0 0x74
Standard ID: 0x1D2       DLC: 6  Data: 0xF0 0x0F 0xFF 0xAC 0xF0 0xFF
Standard ID: 0x1D0       DLC: 8  Data: 0x36 0xFF 0x49 0xB7 0x00 0x00 0xFD 0x6D
Standard ID: 0x0A8       DLC: 8  Data: 0x76 0xFB 0xF5 0xF0 0xF5 0xF1 0x03 0x00
Standard ID: 0x0C0       DLC: 2  Data: 0xFA 0xFF
Standard ID: 0x1B5       DLC: 6  Data: 0xFF 0xFF 0x02 0x00 0x08 0xFF
Standard ID: 0x4E2       DLC: 8  Data: 0x64 0x42 0xFF 0x01 0xFF 0x01 0xFF 0xFF
Standard ID: 0x1A6       DLC: 8  Data: 0x00 0x00 0x00 0x00 0x00 0x00 0xC4 0xFF
Standard ID: 0x0FD       DLC: 3  Data: 0xFF 0xFF 0xFF
Standard ID: 0x0FC       DLC: 3  Data: 0xFF 0xF8 0xFF
Standard ID: 0x130       DLC: 5  Data: 0x00 0x0F 0x34 0x3F 0x24
Standard ID: 0x0A8       DLC: 8  Data: 0x71 0xF6 0xF5 0xF0 0xF5 0xF1 0x03 0x00
Standard ID: 0x0BE       DLC: 5  Data: 0xFF 0xFF 0xFF 0xFF 0xFF
Standard ID: 0x0CE       DLC: 8  Data: 0x00 0x00 0x00 0x00 0x00 0x00 0x00 0x00
Standard ID: 0x1A0       DLC: 8  Data: 0x00 0x80 0x01 0x80 0x00 0x00 0x30 0xD3
Standard ID: 0x0AA       DLC: 8  Data: 0x1C 0xF6 0xF5 0x00 0x00 0x00 0x84 0x00
Standard ID: 0x1D0       DLC: 8  Data: 0x36 0xFF 0x49 0xB7 0x00 0x00 0xFD 0x70
Standard ID: 0x5C0       DLC: 8  Data: 0x04 0x00 0x32 0xFF 0xFF 0xFF 0xF4 0xFF
Standard ID: 0x4E4       DLC: 8  Data: 0x65 0x52 0xFF 0x01 0xFF 0xFF 0xFF 0xFF
Standard ID: 0x1A6       DLC: 8  Data: 0x00 0x00 0x00 0x00 0x00 0x00 0x54 0xF1
Standard ID: 0x0FD       DLC: 3  Data: 0xFF 0xFF 0xFF
Standard ID: 0x0FC       DLC: 3  Data: 0xFF 0xF8 0xFF
Standard ID: 0x130       DLC: 5  Data: 0x00 0x0F 0x34 0x3F 0x35
Standard ID: 0x0A8       DLC: 8  Data: 0x6C 0xF1 0xF5 0xF0 0xF5 0xF1 0x03 0x00
Standard ID: 0x0AA       DLC: 8  Data: 0x17 0xF1 0xF5 0x00 0x00 0x00 0x84 0x00
Standard ID: 0x0CE       DLC: 8  Data: 0x00 0x00 0x00 0x00 0x00 0x00 0x00 0x00
Standard ID: 0x1D2       DLC: 6  Data: 0xF0 0x0F 0xFF 0xBC 0xF0 0xFF
Standard ID: 0x1B6       DLC: 7  Data: 0xFF 0xFF 0x00 0xFF 0x00 0xFC 0x00
Standard ID: 0x1D0       DLC: 8  Data: 0x36 0xFF 0x4A 0xB7 0x00 0x00 0xFD 0x73
Standard ID: 0x0C0       DLC: 2  Data: 0xFB 0xFF
Standard ID: 0x4E5       DLC: 8  Data: 0x67 0x52 0xFF 0x01 0xFF 0xFF 0xFF 0xFF
Standard ID: 0x1A6       DLC: 8  Data: 0x00 0x00 0x00 0x00 0x00 0x00 0xE4 0xF2
Standard ID: 0x0FD       DLC: 3  Data: 0xFF 0xFF 0xFF
Standard ID: 0x0FC       DLC: 3  Data: 0xFF 0xF8 0xFF
Standard ID: 0x130       DLC: 5  Data: 0x00 0x0F 0x34 0x3F 0x46
Standard ID: 0x1D6       DLC: 2  Data: 0xC0 0x00
Standard ID: 0x0AA       DLC: 8  Data: 0x21 0xFB 0xF5 0x00 0x00 0x00 0x84 0x00
Standard ID: 0x0C4       DLC: 7  Data: 0x00 0x80 0xFD 0x00 0x80 0xE3 0xFD
Standard ID: 0x1A0       DLC: 8  Data: 0x00 0x80 0x01 0x80 0x00 0xF9 0xDF 0x7D
Standard ID: 0x1EA       DLC: 2  Data: 0xFF 0xFF
Standard ID: 0x1D0       DLC: 8  Data: 0x36 0xFF 0x4A 0xB7 0x00 0x00 0xFD 0x76
Standard ID: 0x4E7       DLC: 8  Data: 0x70 0x52 0xFF 0x01 0xFF 0xFF 0xFF 0xFF
Standard ID: 0x5F8       DLC: 8  Data: 0x08 0x05 0x00 0xFE 0xFF 0xFF 0xFF 0xFF
Standard ID: 0x1A6       DLC: 8  Data: 0x00 0x00 0x00 0x00 0x00 0x00 0x74 0xF4
Standard ID: 0x0FD       DLC: 3  Data: 0xFF 0xFF 0xFF
Standard ID: 0x0FC       DLC: 3  Data: 0xFF 0xF8 0xFF
Standard ID: 0x3B3       DLC: 6  Data: 0xF1 0xFF 0xFF 0x7F 0x00 0x01
Standard ID: 0x0A8       DLC: 8  Data: 0x71 0xF6 0xF5 0xF0 0xF5 0xF1 0x03 0x00
Standard ID: 0x0AA       DLC: 8  Data: 0x1C 0xF6 0xF5 0x00 0x00 0x00 0x84 0x00
Standard ID: 0x0CE       DLC: 8  Data: 0x00 0x00 0x00 0x00 0x00 0x00 0x00 0x00
Standard ID: 0x1D2       DLC: 6  Data: 0xF0 0x0F 0xFF 0xCC 0xF0 0xFF
Standard ID: 0x130       DLC: 5  Data: 0x00 0x0F 0x34 0x3F 0x57
Standard ID: 0x1D0       DLC: 8  Data: 0x36 0xFF 0x4B 0xB7 0x00 0x00 0xFD 0x79
Standard ID: 0x4F0       DLC: 8  Data: 0x72 0x52 0xFF 0x01 0x00 0xA4 0x84 0x00
Standard ID: 0x0C0       DLC: 2  Data: 0xFC 0xFF
Standard ID: 0x1A6       DLC: 8  Data: 0x00 0x00 0x00 0x00 0x00 0x00 0x04 0xF6
Standard ID: 0x0FD       DLC: 3  Data: 0xFF 0xFF 0xFF
Standard ID: 0x0FC       DLC: 3  Data: 0xFF 0xF8 0xFF
Standard ID: 0x130       DLC: 5  Data: 0x00 0x0F 0x34 0x3F 0x68
Standard ID: 0x0A8       DLC: 8  Data: 0x6C 0xF1 0xF5 0xF0 0xF5 0xF1 0x03 0x00
Standard ID: 0x0BE       DLC: 5  Data: 0xFF 0xFF 0xFF 0xFF 0xFF
Standard ID: 0x0CE       DLC: 8  Data: 0x00 0x00 0x00 0x00 0x00 0x00 0x00 0x00
Standard ID: 0x1A0       DLC: 8  Data: 0x00 0x80 0xFD 0x8F 0x00 0xFE 0x8F 0x3E
Standard ID: 0x0AA       DLC: 8  Data: 0x17 0xF1 0xF5 0x00 0x00 0x00 0x84 0x00
Standard ID: 0x4F2       DLC: 8  Data: 0x73 0x52 0xFF 0x01 0x00 0x00 0x00 0x00
Standard ID: 0x1D0       DLC: 8  Data: 0x36 0xFF 0x4B 0xB7 0x00 0x00 0xFD 0x7C
Standard ID: 0x328       DLC: 6  Data: 0xF6 0x02 0x00 0x00 0xB3 0x18
Standard ID: 0x1A6       DLC: 8  Data: 0x00 0x00 0x00 0x00 0x00 0x00 0x94 0xF7
Standard ID: 0x0FD       DLC: 3  Data: 0xFF 0xFF 0xFF
Standard ID: 0x0FC       DLC: 3  Data: 0xFF 0xF8 0xFF
Standard ID: 0x130       DLC: 5  Data: 0x00 0x0F 0x34 0x3F 0x79
Standard ID: 0x0A8       DLC: 8  Data: 0x76 0xFB 0xF5 0xF0 0xF5 0xF1 0x03 0x00
Standard ID: 0x0AA       DLC: 8  Data: 0x21 0xFB 0xF5 0x00 0x00 0x00 0x84 0x00
Standard ID: 0x0CE       DLC: 8  Data: 0x00 0x00 0x00 0x00 0x00 0x00 0x00 0x00
Standard ID: 0x1D2       DLC: 6  Data: 0xF0 0x0F 0xFF 0xDC 0xF0 0xFF
Standard ID: 0x4F3       DLC: 8  Data: 0x78 0x52 0xFF 0x01 0xFF 0xFF 0xFF 0xFF
Standard ID: 0x1D0       DLC: 8  Data: 0x36 0xFF 0x4C 0xB7 0x00 0x00 0xFD 0x7F
Standard ID: 0x1A0       DLC: 8  Data: 0x00 0x80 0x01 0x80 0x00 0xF9 0xDF 0x7D
Standard ID: 0x0C0       DLC: 2  Data: 0xFD 0xFF
Standard ID: 0x1A6       DLC: 8  Data: 0x00 0x00 0x00 0x00 0x00 0x00 0x24 0xF9
Standard ID: 0x0FD       DLC: 3  Data: 0xFF 0xFF 0xFF
Standard ID: 0x0FC       DLC: 3  Data: 0xFF 0xF8 0xFF
Standard ID: 0x130       DLC: 5  Data: 0x00 0x0F 0x34 0x3F 0x8A
Standard ID: 0x0A8       DLC: 8  Data: 0x71 0xF6 0xF5 0xF0 0xF5 0xF1 0x03 0x00
Standard ID: 0x4F8       DLC: 8  Data: 0x00 0x52 0xFF 0x01 0xFF 0xFF 0xFF 0xFF
Standard ID: 0x0CE       DLC: 8  Data: 0x00 0x00 0x00 0x00 0x00 0x00 0x00 0x00
Standard ID: 0x1A0       DLC: 8  Data: 0x00 0x80 0x01 0x80 0x00 0xF9 0x3F 0xDC
Standard ID: 0x0AA       DLC: 8  Data: 0x1C 0xF6 0xF5 0x00 0x00 0x00 0x84 0x00
Standard ID: 0x1D0       DLC: 8  Data: 0x36 0xFF 0x4C 0xB7 0x00 0x00 0xFD 0x82
Standard ID: 0x480       DLC: 8  Data: 0x38 0x42 0xFF 0x01 0xFF 0xFF 0xFF 0xFF
Standard ID: 0x1A6       DLC: 8  Data: 0x00 0x00 0x00 0x00 0x00 0x00 0xB4 0xFA
Standard ID: 0x0FD       DLC: 3  Data: 0xFF 0xFF 0xFF
Standard ID: 0x0FC       DLC: 3  Data: 0xFF 0xF8 0xFF
Standard ID: 0x130       DLC: 5  Data: 0x00 0x0F 0x34 0x3F 0x9B
Standard ID: 0x0A8       DLC: 8  Data: 0x6C 0xF1 0xF5 0xF0 0xF5 0xF1 0x03 0x00
Standard ID: 0x0AA       DLC: 8  Data: 0x18 0xF2 0xF5 0x00 0x00 0x00 0x84 0x00
Standard ID: 0x0CE       DLC: 8  Data: 0x00 0x00 0x00 0x00 0x00 0x00 0x00 0x00
Standard ID: 0x1D2       DLC: 6  Data: 0xF0 0x0F 0xFF 0xEC 0xF0 0xFF
Standard ID: 0x1A0       DLC: 8  Data: 0x00 0x80 0xFC 0x8F 0x00 0x00 0x80 0x2F
Standard ID: 0x1D0       DLC: 8  Data: 0x36 0xFF 0x4D 0xB7 0x00 0x00 0xFD 0x85
Standard ID: 0x592       DLC: 8  Data: 0x01 0x03 0x95 0x00 0x00 0x00 0x00 0x00
Standard ID: 0x395       DLC: 5  Data: 0x02 0x08 0x50 0x64 0xFF
Standard ID: 0x0C0       DLC: 2  Data: 0xFE 0xFF
Standard ID: 0x4B8       DLC: 8  Data: 0x40 0x52 0xFF 0x01 0xFF 0xFF 0xFF 0xFF
Standard ID: 0x580       DLC: 8  Data: 0x04 0x11 0x04 0x01 0x05 0xFF 0x00 0xF0
Standard ID: 0x1A6       DLC: 8  Data: 0x00 0x00 0x00 0x00 0x00 0x00 0x44 0xFC
Standard ID: 0x0FD       DLC: 3  Data: 0xFF 0xFF 0xFF
Standard ID: 0x0FC       DLC: 3  Data: 0xFF 0xF8 0xFF
Standard ID: 0x26E       DLC: 8  Data: 0x00 0x00 0x00 0x50 0xFF 0xFF 0xFF 0xFF
Standard ID: 0x0A8       DLC: 8  Data: 0x76 0xFB 0xF5 0xF0 0xF5 0xF1 0x03 0x00
Standard ID: 0x0C8       DLC: 6  Data: 0x00 0x80 0xFD 0x00 0x80 0x85
Standard ID: 0x1A0       DLC: 8  Data: 0x00 0x80 0x01 0x80 0x00 0x00 0xD0 0x74
Standard ID: 0x304       DLC: 2  Data: 0xE3 0xFF
Standard ID: 0x130       DLC: 5  Data: 0x00 0x0F 0x34 0x3F 0xAC
Standard ID: 0x1D0       DLC: 8  Data: 0x36 0xFF 0x4D 0xB7 0x00 0x00 0xFD 0x88
Standard ID: 0x2CA       DLC: 2  Data: 0x5F 0xFF
Standard ID: 0x4C0       DLC: 8  Data: 0x43 0x42 0xFF 0x01 0x20 0x01 0xFA 0x00
Standard ID: 0x1A6       DLC: 8  Data: 0x00 0x00 0x00 0x00 0x00 0x00 0xD4 0xFD
Standard ID: 0x0FD       DLC: 3  Data: 0xFF 0xFF 0xFF
Standard ID: 0x0FC       DLC: 3  Data: 0xFF 0xF8 0xFF
Standard ID: 0x130       DLC: 5  Data: 0x00 0x0F 0x34 0x3F 0xCD
Standard ID: 0x0A8       DLC: 8  Data: 0x71 0xF6 0xF5 0xF0 0xF5 0xF1 0x03 0x00
Standard ID: 0x0AA       DLC: 8  Data: 0x1C 0xF6 0xF5 0x00 0x00 0x00 0x84 0x00
Standard ID: 0x0CE       DLC: 8  Data: 0x00 0x00 0x00 0x00 0x00 0x00 0x00 0x00
Standard ID: 0x1D2       DLC: 6  Data: 0xF0 0x0F 0xFF 0x0C 0xF0 0xFF
Standard ID: 0x1A0       DLC: 8  Data: 0x00 0x80 0x01 0x80 0x00 0xF9 0x3F 0xDC
Standard ID: 0x1D0       DLC: 8  Data: 0x36 0xFF 0x4E 0xB7 0x00 0x00 0xFD 0x88
Standard ID: 0x0C0       DLC: 2  Data: 0xF0 0xFF
Standard ID: 0x1B5       DLC: 6  Data: 0xFF 0xFF 0x02 0x00 0x08 0xFF
Standard ID: 0x4C3       DLC: 8  Data: 0x44 0x52 0xFF 0x01 0xFF 0xFF 0xFF 0xFF
Standard ID: 0x1A6       DLC: 8  Data: 0x00 0x00 0x00 0x00 0x00 0x00 0x64 0xFF
Standard ID: 0x0FD       DLC: 3  Data: 0xFF 0xFF 0xFF
Standard ID: 0x0FC       DLC: 3  Data: 0xFF 0xF8 0xFF
Standard ID: 0x130       DLC: 5  Data: 0x00 0x0F 0x34 0x3F 0xDE
Standard ID: 0x0A8       DLC: 8  Data: 0x6C 0xF1 0xF5 0xF0 0xF5 0xF1 0x03 0x00
Standard ID: 0x0BE       DLC: 5  Data: 0xFF 0xFF 0xFF 0xFF 0xFF
Standard ID: 0x0CE       DLC: 8  Data: 0x00 0x00 0x00 0x00 0x00 0x00 0x00 0x00
Standard ID: 0x1A0       DLC: 8  Data: 0x00 0x80 0x01 0x80 0x00 0xF9 0x8F 0x2D
Standard ID: 0x0AA       DLC: 8  Data: 0x17 0xF1 0xF5 0x00 0x00 0x00 0x84 0x00
Standard ID: 0x1D0       DLC: 8  Data: 0x36 0xFF 0x4E 0xB7 0x00 0x00 0xFD 0x88
Standard ID: 0x4C4       DLC: 8  Data: 0x45 0x52 0xFF 0x01 0xFF 0xFF 0xFF 0xFF
Standard ID: 0x1A6       DLC: 8  Data: 0x00 0x00 0x00 0x00 0x00 0x00 0xF4 0xF0
Standard ID: 0x0FD       DLC: 3  Data: 0xFF 0xFF 0xFF
Standard ID: 0x0FC       DLC: 3  Data: 0xFF 0xF8 0xFF
Standard ID: 0x130       DLC: 5  Data: 0x00 0x0F 0x34 0x3F 0xE0
Standard ID: 0x0A8       DLC: 8  Data: 0x76 0xFB 0xF5 0xF0 0xF5 0xF1 0x03 0x00
Standard ID: 0x0AA       DLC: 8  Data: 0x21 0xFB 0xF5 0x00 0x00 0x00 0x84 0x00
Standard ID: 0x0CE       DLC: 8  Data: 0x00 0x00 0x00 0x00 0x00 0x00 0x00 0x00
Standard ID: 0x1D2       DLC: 6  Data: 0xF0 0x0F 0xFF 0x1C 0xF0 0xFF
Standard ID: 0x1B6       DLC: 7  Data: 0xFF 0xFF 0x00 0xFF 0x00 0xFC 0x00
Standard ID: 0x1D0       DLC: 8  Data: 0x36 0xFF 0x40 0xB7 0x00 0x00 0xFD 0x88
Standard ID: 0x4C5       DLC: 8  Data: 0x60 0x52 0xFF 0xFF 0xFF 0xFF 0xFF 0xFF
Standard ID: 0x0C0       DLC: 2  Data: 0xF1 0xFF
Standard ID: 0x1A6       DLC: 8  Data: 0x00 0x00 0x00 0x00 0x00 0x00 0x84 0xF2
Standard ID: 0x0FD       DLC: 3  Data: 0xFF 0xFF 0xFF
Standard ID: 0x0FC       DLC: 3  Data: 0xFF 0xF8 0xFF
Standard ID: 0x130       DLC: 5  Data: 0x00 0x0F 0x34 0x3F 0xF1
Standard ID: 0x1D6       DLC: 2  Data: 0xC0 0x00
Standard ID: 0x0AA       DLC: 8  Data: 0x1C 0xF6 0xF5 0x00 0x00 0x00 0x84 0x00
Standard ID: 0x0C4       DLC: 7  Data: 0x00 0x80 0xFD 0x00 0x80 0xE3 0xFD
Standard ID: 0x1A0       DLC: 8  Data: 0x00 0x80 0x01 0x80 0x00 0x00 0x30 0xD3
Standard ID: 0x1EA       DLC: 2  Data: 0xFF 0xFF
Standard ID: 0x1D0       DLC: 8  Data: 0x36 0xFF 0x40 0xB7 0x00 0x00 0xFD 0x88
Standard ID: 0x4E0       DLC: 8  Data: 0x62 0x52 0xFF 0x01 0xFF 0xFF 0xFF 0xFF
Standard ID: 0x1A6       DLC: 8  Data: 0x00 0x00 0x00 0x00 0x00 0x00 0x14 0xF4
Standard ID: 0x0FD       DLC: 3  Data: 0xFF 0xFF 0xFF
Standard ID: 0x0FC       DLC: 3  Data: 0xFF 0xF8 0xFF
Standard ID: 0x130       DLC: 5  Data: 0x00 0x0F 0x34 0x3F 0x02
Standard ID: 0x0A8       DLC: 8  Data: 0x6C 0xF1 0xF5 0xF0 0xF5 0xF1 0x03 0x00
Standard ID: 0x0AA       DLC: 8  Data: 0x18 0xF2 0xF5 0x00 0x00 0x00 0x84 0x00
Standard ID: 0x0CE       DLC: 8  Data: 0x00 0x00 0x00 0x00 0x00 0x00 0x00 0x00
Standard ID: 0x1D2       DLC: 6  Data: 0xF0 0x0F 0xFF 0x2C 0xF0 0xFF
Standard ID: 0x4E2       DLC: 8  Data: 0x64 0x42 0xFF 0x01 0xFF 0x01 0xFF 0xFF
Standard ID: 0x1D0       DLC: 8  Data: 0x36 0xFF 0x41 0xB7 0x00 0x00 0xFD 0x88
Standard ID: 0x1A0       DLC: 8  Data: 0x00 0x80 0x01 0x80 0x00 0xF9 0x8F 0x2D
Standard ID: 0x0C0       DLC: 2  Data: 0xF2 0xFF
Standard ID: 0x1A6       DLC: 8  Data: 0x00 0x00 0x00 0x00 0x00 0x00 0xA4 0xF5
Standard ID: 0x0FD       DLC: 3  Data: 0xFF 0xFF 0xFF
Standard ID: 0x0FC       DLC: 3  Data: 0xFF 0xF8 0xFF
Standard ID: 0x130       DLC: 5  Data: 0x00 0x0F 0x34 0x3F 0x13
Standard ID: 0x0A8       DLC: 8  Data: 0x76 0xFB 0xF5 0xF0 0xF5 0xF1 0x03 0x00
Standard ID: 0x0BE       DLC: 5  Data: 0xFF 0xFF 0xFF 0xFF 0xFF
Standard ID: 0x0CE       DLC: 8  Data: 0x00 0x00 0x00 0x00 0x00 0x00 0x00 0x00
Standard ID: 0x1A0       DLC: 8  Data: 0x00 0x80 0x01 0x80 0x00 0xFE 0xDF 0x82
Standard ID: 0x0AA       DLC: 8  Data: 0x22 0xFC 0xF5 0x00 0x00 0x00 0x84 0x00
Standard ID: 0x1D0       DLC: 8  Data: 0x36 0xFF 0x41 0xB7 0x00 0x00 0xFD 0x88
Standard ID: 0x328       DLC: 6  Data: 0xF7 0x02 0x00 0x00 0xB3 0x18
Standard ID: 0x1A6       DLC: 8  Data: 0x00 0x00 0x00 0x00 0x00 0x00 0x34 0xF7
Standard ID: 0x0FD       DLC: 3  Data: 0xFF 0xFF 0xFF
Standard ID: 0x0FC       DLC: 3  Data: 0xFF 0xF8 0xFF
Standard ID: 0x130       DLC: 5  Data: 0x00 0x0F 0x34 0x3F 0x24
Standard ID: 0x0A8       DLC: 8  Data: 0x71 0xF6 0xF5 0xF0 0xF5 0xF1 0x03 0x00
Standard ID: 0x0AA       DLC: 8  Data: 0x1D 0xF7 0xF5 0x00 0x00 0x00 0x84 0x00
Standard ID: 0x0CE       DLC: 8  Data: 0x00 0x00 0x00 0x00 0x00 0x00 0x00 0x00
Standard ID: 0x1D2       DLC: 6  Data: 0xF0 0x0F 0xFF 0x3C 0xF0 0xFF
Standard ID: 0x1A0       DLC: 8  Data: 0x00 0x80 0x01 0x80 0x00 0xFE 0x3F 0xE1
Standard ID: 0x1D0       DLC: 8  Data: 0x36 0xFF 0x42 0xB7 0x00 0x00 0xFD 0x88
Standard ID: 0x0C0       DLC: 2  Data: 0xF3 0xFF
Standard ID: 0x1A6       DLC: 8  Data: 0x00 0x00 0x00 0x00 0x00 0x00 0xC4 0xF8
Standard ID: 0x0FD       DLC: 3  Data: 0xFF 0xFF 0xFF
Standard ID: 0x0FC       DLC: 3  Data: 0xFF 0xF8 0xFF
Standard ID: 0x130       DLC: 5  Data: 0x00 0x0F 0x34 0x3F 0x35
Standard ID: 0x0A8       DLC: 8  Data: 0x6C 0xF1 0xF5 0xF0 0xF5 0xF1 0x03 0x00
Standard ID: 0x0BE       DLC: 5  Data: 0xFF 0xFF 0xFF 0xFF 0xFF
Standard ID: 0x0CE       DLC: 8  Data: 0x00 0x00 0x00 0x00 0x00 0x00 0x00 0x00
Standard ID: 0x1A0       DLC: 8  Data: 0x00 0x80 0x01 0x80 0x00 0x00 0x80 0x24
Standard ID: 0x0AA       DLC: 8  Data: 0x18 0xF2 0xF5 0x00 0x00 0x00 0x84 0x00
Standard ID: 0x1D0       DLC: 8  Data: 0x36 0xFF 0x42 0xB7 0x00 0x00 0xFD 0x88
Standard ID: 0x1A6       DLC: 8  Data: 0x00 0x00 0x00 0x00 0x00 0x00 0x54 0xFA
Standard ID: 0x0FD       DLC: 3  Data: 0xFF 0xFF 0xFF
Standard ID: 0x0FC       DLC: 3  Data: 0xFF 0xF8 0xFF
Standard ID: 0x130       DLC: 5  Data: 0x00 0x0F 0x34 0x3F 0x46
Standard ID: 0x0A8       DLC: 8  Data: 0x76 0xFB 0xF5 0xF0 0xF5 0xF1 0x03 0x00
Standard ID: 0x4F0       DLC: 8  Data: 0x72 0x52 0xFF 0x01 0x00 0xA4 0x84 0x00
Standard ID: 0x0CE       DLC: 8  Data: 0x00 0x00 0x00 0x00 0x00 0x00 0x00 0x00
Standard ID: 0x1D2       DLC: 6  Data: 0xF0 0x0F 0xFF 0x4C 0xF0 0xFF
Standard ID: 0x0AA       DLC: 8  Data: 0x22 0xFC 0xF5 0x00 0x00 0x00 0x84 0x00
Standard ID: 0x1D0       DLC: 8  Data: 0x36 0xFF 0x43 0xB7 0x00 0x00 0xFD 0x88
Standard ID: 0x0C0       DLC: 2  Data: 0xF4 0xFF
Standard ID: 0x1A6       DLC: 8  Data: 0x00 0x00 0x00 0x00 0x00 0x00 0xE4 0xFB
Standard ID: 0x0FD       DLC: 3  Data: 0xFF 0xFF 0xFF
Standard ID: 0x4F2       DLC: 8  Data: 0x73 0x52 0xFF 0x01 0x00 0x00 0x00 0x00
Standard ID: 0x130       DLC: 5  Data: 0x00 0x0F 0x34 0x3F 0x57
Standard ID: 0x0A8       DLC: 8  Data: 0x71 0xF6 0xF5 0xF0 0xF5 0xF1 0x03 0x00
Standard ID: 0x0BE       DLC: 5  Data: 0xFF 0xFF 0xFF 0xFF 0xFF
Standard ID: 0x19E       DLC: 8  Data: 0x00 0xED 0x30 0xFC 0xF0 0x43 0x00 0xEE
Standard ID: 0x1FE       DLC: 2  Data: 0xFF 0x00
Standard ID: 0x304       DLC: 2  Data: 0xE3 0xFF
Standard ID: 0x0FC       DLC: 3  Data: 0xFF 0xF8 0xFF
Standard ID: 0x1D0       DLC: 8  Data: 0x36 0xFF 0x43 0xB7 0x00 0x00 0xFD 0x88
Standard ID: 0x2CA       DLC: 2  Data: 0x5F 0xFF
Standard ID: 0x4F3       DLC: 8  Data: 0x78 0x52 0xFF 0x01 0xFF 0xFF 0xFF 0xFF
Standard ID: 0x1A6       DLC: 8  Data: 0x00 0x00 0x00 0x00 0x00 0x00 0x74 0xFD
Standard ID: 0x0FD       DLC: 3  Data: 0xFF 0xFF 0xFF
Standard ID: 0x0FC       DLC: 3  Data: 0xFF 0xF8 0xFF
Standard ID: 0x130       DLC: 5  Data: 0x00 0x0F 0x34 0x3F 0x68
Standard ID: 0x0A8       DLC: 8  Data: 0x8C 0x01 0xF6 0x00 0xF6 0xF1 0x03 0x00
Standard ID: 0x0AA       DLC: 8  Data: 0x28 0x02 0xF6 0x00 0x00 0x00 0x84 0x00
Standard ID: 0x0CE       DLC: 8  Data: 0x00 0x00 0x00 0x00 0x00 0x00 0x00 0x00
Standard ID: 0x1D2       DLC: 6  Data: 0xF0 0x0F 0xFF 0x5C 0xF0 0xFF
Standard ID: 0x1A0       DLC: 8  Data: 0x00 0x80 0x01 0x80 0x00 0x00 0x80 0x24
Standard ID: 0x1D0       DLC: 8  Data: 0x36 0xFF 0x44 0xB7 0x00 0x00 0xFD 0x88
Standard ID: 0x0C0       DLC: 2  Data: 0xF5 0xFF
Standard ID: 0x1B5       DLC: 6  Data: 0xFF 0xFF 0x02 0x00 0x08 0xFF
Standard ID: 0x4F8       DLC: 8  Data: 0x00 0x52 0xFF 0x01 0xFF 0xFF 0xFF 0xFF
Standard ID: 0x1A6       DLC: 8  Data: 0x00 0x00 0x00 0x00 0x00 0x00 0x04 0xFF
Standard ID: 0x0FD       DLC: 3  Data: 0xFF 0xFF 0xFF
Standard ID: 0x0FC       DLC: 3  Data: 0xFF 0xF8 0xFF
Standard ID: 0x130       DLC: 5  Data: 0x00 0x0F 0x34 0x3F 0x79
Standard ID: 0x0A8       DLC: 8  Data: 0x96 0x0B 0xF6 0x00 0xF6 0xF1 0x03 0x00
Standard ID: 0x0BE       DLC: 5  Data: 0xFF 0xFF 0xFF 0xFF 0xFF
Standard ID: 0x0CE       DLC: 8  Data: 0x00 0x00 0x00 0x00 0x00 0x00 0x00 0x00
Standard ID: 0x1A0       DLC: 8  Data: 0x00 0x80 0x01 0x80 0x00 0x00 0xD0 0x74
Standard ID: 0x0AA       DLC: 8  Data: 0x32 0x0C 0xF6 0x00 0x00 0x00 0x84 0x00
Standard ID: 0x1D0       DLC: 8  Data: 0x36 0xFF 0x44 0xB7 0x00 0x00 0xFD 0x88
Standard ID: 0x480       DLC: 8  Data: 0x38 0x42 0xFF 0x01 0xFF 0xFF 0xFF 0xFF
Standard ID: 0x5C0       DLC: 8  Data: 0x04 0x00 0x32 0xFF 0xFF 0xFF 0xF4 0xFF
Standard ID: 0x1A6       DLC: 8  Data: 0x00 0x00 0x00 0x00 0x00 0x00 0x94 0xF0
Standard ID: 0x0FD       DLC: 3  Data: 0xFF 0xFF 0xFF
Standard ID: 0x0FC       DLC: 3  Data: 0xFF 0xF8 0xFF
Standard ID: 0x130       DLC: 5  Data: 0x00 0x0F 0x34 0x3F 0x8A
Standard ID: 0x0A8       DLC: 8  Data: 0x91 0x06 0xF6 0x00 0xF6 0xF1 0x03 0x00
Standard ID: 0x0AA       DLC: 8  Data: 0x2C 0x06 0xF6 0x00 0x00 0x00 0x84 0x00
Standard ID: 0x0CE       DLC: 8  Data: 0x00 0x00 0x00 0x00 0x00 0x00 0x00 0x00
Standard ID: 0x1D2       DLC: 6  Data: 0xF0 0x0F 0xFF 0x6C 0xF0 0xFF
Standard ID: 0x1B6       DLC: 7  Data: 0xFF 0xFF 0x00 0xFF 0x00 0xFC 0x00
Standard ID: 0x1D0       DLC: 8  Data: 0x36 0xFF 0x45 0xB7 0x00 0x00 0xFD 0x88
Standard ID: 0x4B8       DLC: 8  Data: 0x40 0x52 0xFF 0x01 0xFF 0xFF 0xFF 0xFF
Standard ID: 0x0C0       DLC: 2  Data: 0xF6 0xFF
Standard ID: 0x1A6       DLC: 8  Data: 0x00 0x00 0x00 0x00 0x00 0x00 0x24 0xF2
Standard ID: 0x0FD       DLC: 3  Data: 0xFF 0xFF 0xFF
Standard ID: 0x0FC       DLC: 3  Data: 0xFF 0xF8 0xFF
Standard ID: 0x130       DLC: 5  Data: 0x00 0x0F 0x34 0x3F 0x9B
Standard ID: 0x1D6       DLC: 2  Data: 0xC0 0x00
Standard ID: 0x0AA       DLC: 8  Data: 0x18 0xF2 0xF5 0x00 0x00 0x00 0x84 0x00
Standard ID: 0x0C4       DLC: 7  Data: 0x00 0x80 0xFD 0x00 0x80 0xE3 0xFD
Standard ID: 0x1A0       DLC: 8  Data: 0x00 0x80 0x01 0x80 0x00 0xFE 0x8F 0x32
Standard ID: 0x4C0       DLC: 8  Data: 0x43 0x42 0xFF 0x01 0x20 0x01 0xFA 0x00
Standard ID: 0x1D0       DLC: 8  Data: 0x36 0xFF 0x45 0xB7 0x00 0x00 0xFD 0x88
Standard ID: 0x1EA       DLC: 2  Data: 0xFF 0xFF
Standard ID: 0x0E2       DLC: 8  Data: 0xFF 0xFF 0xE7 0xFC 0xFF 0xFF 0xFF 0x00
Standard ID: 0x0EA       DLC: 8  Data: 0x8F 0xFF 0xE0 0xFC 0xFF 0xFF 0xFF 0x00
Standard ID: 0x1A6       DLC: 8  Data: 0x00 0x00 0x00 0x00 0x00 0x00 0xB4 0xF3
Standard ID: 0x0FD       DLC: 3  Data: 0xFF 0xFF 0xFF
Standard ID: 0x0FC       DLC: 3  Data: 0xFF 0xF8 0xFF
Standard ID: 0x130       DLC: 5  Data: 0x00 0x0F 0x34 0x3F 0xAC
Standard ID: 0x0A8       DLC: 8  Data: 0x76 0xFB 0xF5 0xF0 0xF5 0xF1 0x03 0x00
Standard ID: 0x4C3       DLC: 8  Data: 0x44 0x52 0xFF 0x01 0xFF 0xFF 0xFF 0xFF
Standard ID: 0x0CE       DLC: 8  Data: 0x00 0x00 0x00 0x00 0x00 0x00 0x00 0x00
Standard ID: 0x1D2       DLC: 6  Data: 0xF0 0x0F 0xFF 0x7C 0xF0 0xFF
Standard ID: 0x0AA       DLC: 8  Data: 0x22 0xFC 0xF5 0x00 0x00 0x00 0x84 0x00
Standard ID: 0x1D0       DLC: 8  Data: 0x36 0xFF 0x46 0xB7 0x00 0x00 0xFD 0x88
Standard ID: 0x0C0       DLC: 2  Data: 0xF7 0xFF
Standard ID: 0x1A6       DLC: 8  Data: 0x00 0x00 0x00 0x00 0x00 0x00 0x44 0xF5
Standard ID: 0x0FD       DLC: 3  Data: 0xFF 0xFF 0xFF
Standard ID: 0x0FC       DLC: 3  Data: 0xFF 0xF8 0xFF
Standard ID: 0x130       DLC: 5  Data: 0x00 0x0F 0x34 0x3F 0xCD
Standard ID: 0x0A8       DLC: 8  Data: 0x91 0x06 0xF6 0x00 0xF6 0xF1 0x03 0x00
Standard ID: 0x0BE       DLC: 5  Data: 0xFF 0xFF 0xFF 0xFF 0xFF
Standard ID: 0x0CE       DLC: 8  Data: 0x00 0x00 0x00 0x00 0x00 0x00 0x00 0x00
Standard ID: 0x1A0       DLC: 8  Data: 0x00 0x80 0x01 0x80 0x00 0xFE 0x3F 0xE1
Standard ID: 0x0AA       DLC: 8  Data: 0x2D 0x07 0xF6 0x00 0x00 0x00 0x84 0x00
Standard ID: 0x1D0       DLC: 8  Data: 0x36 0xFF 0x46 0xB7 0x00 0x00 0xFD 0x88
Standard ID: 0x328       DLC: 6  Data: 0xF8 0x02 0x00 0x00 0xB3 0x18
Standard ID: 0x1A6       DLC: 8  Data: 0x00 0x00 0x00 0x00 0x00 0x00 0xD4 0xF6
Standard ID: 0x0FD       DLC: 3  Data: 0xFF 0xFF 0xFF
Standard ID: 0x4C5       DLC: 8  Data: 0x60 0x52 0xFF 0xFF 0xFF 0xFF 0xFF 0xFF
Standard ID: 0x130       DLC: 5  Data: 0x00 0x0F 0x34 0x3F 0xDE
Standard ID: 0x0A8       DLC: 8  Data: 0x6C 0xF1 0xF5 0xF0 0xF5 0xF1 0x03 0x00
Standard ID: 0x0AA       DLC: 8  Data: 0x18 0xF2 0xF5 0x00 0x00 0x00 0x84 0x00
Standard ID: 0x0CE       DLC: 8  Data: 0x00 0x00 0x00 0x00 0x00 0x00 0x00 0x00
Standard ID: 0x1D2       DLC: 6  Data: 0xF0 0x0F 0xFF 0x8C 0xF0 0xFF
Standard ID: 0x0FC       DLC: 3  Data: 0xFF 0xF8 0xFF
Standard ID: 0x1D0       DLC: 8  Data: 0x36 0xFF 0x47 0xB7 0x00 0x00 0xFD 0x88
Standard ID: 0x0C0       DLC: 2  Data: 0xF8 0xFF
Standard ID: 0x4E0       DLC: 8  Data: 0x62 0x52 0xFF 0x01 0xFF 0xFF 0xFF 0xFF
Standard ID: 0x1A6       DLC: 8  Data: 0x00 0x00 0x00 0x00 0x00 0x00 0x64 0xF8
Standard ID: 0x0FD       DLC: 3  Data: 0xFF 0xFF 0xFF
Standard ID: 0x0FC       DLC: 3  Data: 0xFF 0xF8 0xFF
Standard ID: 0x130       DLC: 5  Data: 0x00 0x0F 0x34 0x3F 0xE0
Standard ID: 0x0A8       DLC: 8  Data: 0x76 0xFB 0xF5 0xF0 0xF5 0xF1 0x03 0x00
Standard ID: 0x0BE       DLC: 5  Data: 0xFF 0xFF 0xFF 0xFF 0xFF
Standard ID: 0x0CE       DLC: 8  Data: 0x00 0x00 0x00 0x00 0x00 0x00 0x00 0x00
Standard ID: 0x1A0       DLC: 8  Data: 0x00 0x80 0x01 0x80 0x00 0xF9 0xDF 0x7D
Standard ID: 0x0AA       DLC: 8  Data: 0x22 0xFC 0xF5 0x00 0x00 0x00 0x84 0x00
Standard ID: 0x1D0       DLC: 8  Data: 0x36 0xFF 0x47 0xB7 0x00 0x00 0xFD 0x88
Standard ID: 0x4E2       DLC: 8  Data: 0x64 0x42 0xFF 0x01 0xFF 0x01 0xFF 0xFF
Standard ID: 0x1A6       DLC: 8  Data: 0x00 0x00 0x00 0x00 0x00 0x00 0xF4 0xF9
Standard ID: 0x0FD       DLC: 3  Data: 0xFF 0xFF 0xFF
Standard ID: 0x0FC       DLC: 3  Data: 0xFF 0xF8 0xFF
Standard ID: 0x130       DLC: 5  Data: 0x00 0x0F 0x34 0x3F 0xF1
Standard ID: 0x0A8       DLC: 8  Data: 0x71 0xF6 0xF5 0xF0 0xF5 0xF1 0x03 0x00
Standard ID: 0x0AA       DLC: 8  Data: 0x1D 0xF7 0xF5 0x00 0x00 0x00 0x84 0x00
Standard ID: 0x0CE       DLC: 8  Data: 0x00 0x00 0x00 0x00 0x00 0x00 0x00 0x00
Standard ID: 0x1D2       DLC: 6  Data: 0xF0 0x0F 0xFF 0x9C 0xF0 0xFF
Standard ID: 0x1A0       DLC: 8  Data: 0x00 0x80 0x01 0x80 0x00 0xF9 0x3F 0xDC
Standard ID: 0x1D0       DLC: 8  Data: 0x36 0xFF 0x48 0xB7 0x00 0x00 0xFD 0x88
Standard ID: 0x0C0       DLC: 2  Data: 0xF9 0xFF
Standard ID: 0x4E4       DLC: 8  Data: 0x65 0x52 0xFF 0x01 0xFF 0xFF 0xFF 0xFF
Standard ID: 0x580       DLC: 8  Data: 0x04 0x11 0x04 0x01 0x05 0xFF 0x00 0xF0
Standard ID: 0x1A6       DLC: 8  Data: 0x00 0x00 0x00 0x00 0x00 0x00 0x84 0xFB
Standard ID: 0x0FD       DLC: 3  Data: 0xFF 0xFF 0xFF
Standard ID: 0x0FC       DLC: 3  Data: 0xFF 0xF8 0xFF
Standard ID: 0x26E       DLC: 8  Data: 0x00 0x00 0x00 0x50 0xFF 0xFF 0xFF 0xFF
Standard ID: 0x130       DLC: 5  Data: 0x00 0x0F 0x34 0x3F 0x02
Standard ID: 0x0BE       DLC: 5  Data: 0xFF 0xFF 0xFF 0xFF 0xFF
Standard ID: 0x0CE       DLC: 8  Data: 0x00 0x00 0x00 0x00 0x00 0x00 0x00 0x00
Standard ID: 0x1FE       DLC: 2  Data: 0xFF 0x00
Standard ID: 0x304       DLC: 2  Data: 0xE3 0xFF
Standard ID: 0x0A8       DLC: 8  Data: 0x6C 0xF1 0xF5 0xF0 0xF5 0xF1 0x03 0x00
Standard ID: 0x1D0       DLC: 8  Data: 0x36 0xFF 0x48 0xB7 0x00 0x00 0xFD 0x88
Standard ID: 0x2CA       DLC: 2  Data: 0x5F 0xFF
Standard ID: 0x4E5       DLC: 8  Data: 0x67 0x52 0xFF 0x01 0xFF 0xFF 0xFF 0xFF
Standard ID: 0x1A6       DLC: 8  Data: 0x00 0x00 0x00 0x00 0x00 0x00 0x14 0xFD
Standard ID: 0x0FD       DLC: 3  Data: 0xFF 0xFF 0xFF
Standard ID: 0x0FC       DLC: 3  Data: 0xFF 0xF8 0xFF
Standard ID: 0x130       DLC: 5  Data: 0x00 0x0F 0x34 0x3F 0x13
Standard ID: 0x0A8       DLC: 8  Data: 0x76 0xFB 0xF5 0xF0 0xF5 0xF1 0x03 0x00
Standard ID: 0x0AA       DLC: 8  Data: 0x22 0xFC 0xF5 0x00 0x00 0x00 0x84 0x00
Standard ID: 0x0CE       DLC: 8  Data: 0x00 0x00 0x00 0x00 0x00 0x00 0x00 0x00
Standard ID: 0x1D2       DLC: 6  Data: 0xF0 0x0F 0xFF 0xAC 0xF0 0xFF
Standard ID: 0x1A0       DLC: 8  Data: 0x00 0x80 0x01 0x80 0x00 0xFE 0xDF 0x82
Standard ID: 0x1D0       DLC: 8  Data: 0x36 0xFF 0x49 0xB7 0x00 0x00 0xFD 0x88
Standard ID: 0x4E7       DLC: 8  Data: 0x70 0x52 0xFF 0x01 0xFF 0xFF 0xFF 0xFF
Standard ID: 0x0C0       DLC: 2  Data: 0xFA 0xFF
Standard ID: 0x1B5       DLC: 6  Data: 0xFF 0xFF 0x02 0x00 0x08 0xFF
Standard ID: 0x1A6       DLC: 8  Data: 0x00 0x00 0x00 0x00 0x00 0x00 0xA4 0xFE
Standard ID: 0x0FD       DLC: 3  Data: 0xFF 0xFF 0xFF
Standard ID: 0x0FC       DLC: 3  Data: 0xFF 0xF8 0xFF
Standard ID: 0x130       DLC: 5  Data: 0x00 0x0F 0x34 0x3F 0x24
Standard ID: 0x0A8       DLC: 8  Data: 0x91 0x06 0xF6 0x00 0xF6 0xF1 0x03 0x00
Standard ID: 0x0BE       DLC: 5  Data: 0xFF 0xFF 0xFF 0xFF 0xFF
Standard ID: 0x0CE       DLC: 8  Data: 0x00 0x00 0x00 0x00 0x00 0x00 0x00 0x00
Standard ID: 0x1A0       DLC: 8  Data: 0x00 0x80 0x01 0x80 0x00 0xF9 0x3F 0xDC
Standard ID: 0x4F0       DLC: 8  Data: 0x72 0x52 0xFF 0x01 0x00 0xA4 0x84 0x00
Standard ID: 0x1D0       DLC: 8  Data: 0x36 0xFF 0x49 0xB7 0x00 0x00 0xFD 0x88
Standard ID: 0x0AA       DLC: 8  Data: 0x2D 0x07 0xF6 0x00 0x00 0x00 0x84 0x00
Standard ID: 0x1A6       DLC: 8  Data: 0x00 0x00 0x00 0x00 0x00 0x00 0x34 0xF0
Standard ID: 0x0FD       DLC: 3  Data: 0xFF 0xFF 0xFF
Standard ID: 0x0FC       DLC: 3  Data: 0xFF 0xF8 0xFF
Standard ID: 0x130       DLC: 5  Data: 0x00 0x0F 0x34 0x3F 0x35
Standard ID: 0x0A8       DLC: 8  Data: 0x6C 0xF1 0xF5 0xF0 0xF5 0xF1 0x03 0x00
Standard ID: 0x0AA       DLC: 8  Data: 0x18 0xF2 0xF5 0x00 0x00 0x00 0x84 0x00
Standard ID: 0x4F2       DLC: 8  Data: 0x73 0x52 0xFF 0x01 0x00 0x00 0x00 0x00
Standard ID: 0x1D2       DLC: 6  Data: 0xF0 0x0F 0xFF 0xBC 0xF0 0xFF
Standard ID: 0x0CE       DLC: 8  Data: 0x00 0x00 0x00 0x00 0x00 0x00 0x00 0x00
Standard ID: 0x1D0       DLC: 8  Data: 0x36 0xFF 0x4A 0xB7 0x00 0x00 0xFD 0x88
Standard ID: 0x0C0       DLC: 2  Data: 0xFB 0xFF
Standard ID: 0x1A6       DLC: 8  Data: 0x00 0x00 0x00 0x00 0x00 0x00 0xC4 0xF1
Standard ID: 0x0FD       DLC: 3  Data: 0xFF 0xFF 0xFF
Standard ID: 0x0FC       DLC: 3  Data: 0xFF 0xF8 0xFF
Standard ID: 0x130       DLC: 5  Data: 0x00 0x0F 0x34 0x3F 0x46
Standard ID: 0x4F3       DLC: 8  Data: 0x78 0x52 0xFF 0x01 0xFF 0xFF 0xFF 0xFF
Standard ID: 0x0AA       DLC: 8  Data: 0x32 0x0C 0xF6 0x00 0x00 0x00 0x84 0x00
Standard ID: 0x0CE       DLC: 8  Data: 0x00 0x00 0x00 0x00 0x00 0x00 0x00 0x00
Standard ID: 0x1A0       DLC: 8  Data: 0x00 0x80 0xFD 0x8F 0x00 0x00 0xD0 0x80
Standard ID: 0x1D6       DLC: 2  Data: 0xC0 0x00
Standard ID: 0x1D0       DLC: 8  Data: 0x36 0xFF 0x4A 0xB7 0x00 0x00 0xFD 0x88
Standard ID: 0x4F8       DLC: 8  Data: 0x00 0x52 0xFF 0x01 0xFF 0xFF 0xFF 0xFF
Standard ID: 0x1A6       DLC: 8  Data: 0x00 0x00 0x00 0x00 0x00 0x00 0x54 0xF3
Standard ID: 0x0FD       DLC: 3  Data: 0xFF 0xFF 0xFF
Standard ID: 0x0FC       DLC: 3  Data: 0xFF 0xF8 0xFF
Standard ID: 0x130       DLC: 5  Data: 0x00 0x0F 0x34 0x3F 0x57
Standard ID: 0x0AA       DLC: 8  Data: 0x1D 0xF7 0xF5 0x00 0x00 0x00 0x84 0x00
Standard ID: 0x0CE       DLC: 8  Data: 0x00 0x00 0x00 0x00 0x00 0x00 0x00 0x00
Standard ID: 0x1A0       DLC: 8  Data: 0x00 0x80 0x01 0x80 0x00 0xF9 0x3F 0xDC
Standard ID: 0x1D2       DLC: 6  Data: 0xF0 0x0F 0xFF 0xCC 0xF0 0xFF
Standard ID: 0x1D0       DLC: 8  Data: 0x36 0xFF 0x4B 0xB7 0x00 0x00 0xFD 0x88
Standard ID: 0x0A8       DLC: 8  Data: 0x71 0xF6 0xF5 0xF0 0xF5 0xF1 0x03 0x00
Standard ID: 0x0C0       DLC: 2  Data: 0xFC 0xFF
Standard ID: 0x480       DLC: 8  Data: 0x38 0x42 0xFF 0x01 0xFF 0xFF 0xFF 0xFF
Standard ID: 0x1A6       DLC: 8  Data: 0x00 0x00 0x00 0x00 0x00 0x00 0xE4 0xF4
Standard ID: 0x0FD       DLC: 3  Data: 0xFF 0xFF 0xFF
Standard ID: 0x0FC       DLC: 3  Data: 0xFF 0xF8 0xFF
Standard ID: 0x130       DLC: 5  Data: 0x00 0x0F 0x34 0x3F 0x68
Standard ID: 0x0A8       DLC: 8  Data: 0x8C 0x01 0xF6 0x00 0xF6 0xF1 0x03 0x00
Standard ID: 0x0BE       DLC: 5  Data: 0xFF 0xFF 0xFF 0xFF 0xFF
Standard ID: 0x0CE       DLC: 8  Data: 0x00 0x00 0x00 0x00 0x00 0x00 0x00 0x00
Standard ID: 0x1A0       DLC: 8  Data: 0x00 0x80 0x01 0x80 0x00 0xF9 0x8F 0x2D
Standard ID: 0x0AA       DLC: 8  Data: 0x28 0x02 0xF6 0x00 0x00 0x00 0x84 0x00
Standard ID: 0x1D0       DLC: 8  Data: 0x36 0xFF 0x4B 0xB7 0x00 0x00 0xFD 0x88
Standard ID: 0x4B8       DLC: 8  Data: 0x40 0x52 0xFF 0x01 0xFF 0xFF 0xFF 0xFF
Standard ID: 0x328       DLC: 6  Data: 0xF9 0x02 0x00 0x00 0xB3 0x18
Standard ID: 0x1A6       DLC: 8  Data: 0x00 0x00 0x00 0x00 0x00 0x00 0x74 0xF6
Standard ID: 0x0FD       DLC: 3  Data: 0xFF 0xFF 0xFF
Standard ID: 0x0FC       DLC: 3  Data: 0xFF 0xF8 0xFF
Standard ID: 0x130       DLC: 5  Data: 0x00 0x0F 0x34 0x3F 0x79
Standard ID: 0x0A8       DLC: 8  Data: 0x76 0xFB 0xF5 0xF0 0xF5 0xF1 0x03 0x00
Standard ID: 0x0AA       DLC: 8  Data: 0x22 0xFC 0xF5 0x00 0x00 0x00 0x84 0x00
Standard ID: 0x0CE       DLC: 8  Data: 0x00 0x00 0x00 0x00 0x00 0x00 0x00 0x00
Standard ID: 0x1D2       DLC: 6  Data: 0xF0 0x0F 0xFF 0xDC 0xF0 0xFF
Standard ID: 0x1A0       DLC: 8  Data: 0x00 0x80 0xFD 0x8F 0x00 0x00 0xD0 0x80
Standard ID: 0x1D0       DLC: 8  Data: 0x36 0xFF 0x4C 0xB7 0x00 0x00 0xFD 0x88
Standard ID: 0x4C0       DLC: 8  Data: 0x43 0x42 0xFF 0x01 0x20 0x01 0xFA 0x00
Standard ID: 0x0C0       DLC: 2  Data: 0xFD 0xFF
Standard ID: 0x1A6       DLC: 8  Data: 0x00 0x00 0x00 0x00 0x00 0x00 0x04 0xF8
Standard ID: 0x0FD       DLC: 3  Data: 0xFF 0xFF 0xFF
Standard ID: 0x0FC       DLC: 3  Data: 0xFF 0xF8 0xFF
Standard ID: 0x130       DLC: 5  Data: 0x00 0x0F 0x34 0x3F 0x8A
Standard ID: 0x0A8       DLC: 8  Data: 0x71 0xF6 0xF5 0xF0 0xF5 0xF1 0x03 0x00
Standard ID: 0x0BE       DLC: 5  Data: 0xFF 0xFF 0xFF 0xFF 0xFF
Standard ID: 0x0CE       DLC: 8  Data: 0x00 0x00 0x00 0x00 0x00 0x00 0x00 0x00
Standard ID: 0x1A0       DLC: 8  Data: 0x00 0x80 0x01 0x80 0x00 0xFE 0x3F 0xE1
Standard ID: 0x0AA       DLC: 8  Data: 0x1D 0xF7 0xF5 0x00 0x00 0x00 0x84 0x00
Standard ID: 0x4C3       DLC: 8  Data: 0x44 0x52 0xFF 0x01 0xFF 0xFF 0xFF 0xFF
Standard ID: 0x1D0       DLC: 8  Data: 0x36 0xFF 0x4C 0xB7 0x00 0x00 0xFD 0x88
Standard ID: 0x1A6       DLC: 8  Data: 0x00 0x00 0x00 0x00 0x00 0x00 0x94 0xF9
Standard ID: 0x0FD       DLC: 3  Data: 0xFF 0xFF 0xFF
Standard ID: 0x0FC       DLC: 3  Data: 0xFF 0xF8 0xFF
Standard ID: 0x130       DLC: 5  Data: 0x00 0x0F 0x34 0x3F 0x9B
Standard ID: 0x0A8       DLC: 8  Data: 0x6C 0xF1 0xF5 0xF0 0xF5 0xF1 0x03 0x00
Standard ID: 0x0AA       DLC: 8  Data: 0x18 0xF2 0xF5 0x00 0x00 0x00 0x84 0x00
Standard ID: 0x0CE       DLC: 8  Data: 0x00 0x00 0x00 0x00 0x00 0x00 0x00 0x00
Standard ID: 0x1D2       DLC: 6  Data: 0xF0 0x0F 0xFF 0xEC 0xF0 0xFF
Standard ID: 0x4C4       DLC: 8  Data: 0x45 0x52 0xFF 0x01 0xFF 0xFF 0xFF 0xFF
Standard ID: 0x1D0       DLC: 8  Data: 0x36 0xFF 0x4D 0xB7 0x00 0x00 0xFD 0x88
Standard ID: 0x1A0       DLC: 8  Data: 0x00 0x80 0x01 0x80 0x00 0xF9 0x8F 0x2D
Standard ID: 0x0C0       DLC: 2  Data: 0xFE 0xFF
Standard ID: 0x1A6       DLC: 8  Data: 0x00 0x00 0x00 0x00 0x00 0x00 0x24 0xFB
Standard ID: 0x0FD       DLC: 3  Data: 0xFF 0xFF 0xFF
Standard ID: 0x0FC       DLC: 3  Data: 0xFF 0xF8 0xFF
Standard ID: 0x130       DLC: 5  Data: 0x00 0x0F 0x34 0x3F 0xAC
Standard ID: 0x0A8       DLC: 8  Data: 0x96 0x0B 0xF6 0x00 0xF6 0xF1 0x03 0x00
Standard ID: 0x0BE       DLC: 5  Data: 0xFF 0xFF 0xFF 0xFF 0xFF
Standard ID: 0x0CE       DLC: 8  Data: 0x00 0x00 0x00 0x00 0x00 0x00 0x00 0x00
Standard ID: 0x1FE       DLC: 2  Data: 0xFF 0x00
Standard ID: 0x304       DLC: 2  Data: 0xE3 0xFF
Standard ID: 0x4C5       DLC: 8  Data: 0x60 0x52 0xFF 0xFF 0xFF 0xFF 0xFF 0xFF
Standard ID: 0x1D0       DLC: 8  Data: 0x36 0xFF 0x4D 0xB7 0x00 0x00 0xFD 0x88
Standard ID: 0x2CA       DLC: 2  Data: 0x5F 0xFF
Standard ID: 0x0AA       DLC: 8  Data: 0x31 0x0B 0xF6 0x00 0x00 0x00 0x84 0x00
Standard ID: 0x1A6       DLC: 8  Data: 0x00 0x00 0x00 0x00 0x00 0x00 0xB4 0xFC
Standard ID: 0x0FD       DLC: 3  Data: 0xFF 0xFF 0xFF
Standard ID: 0x0FC       DLC: 3  Data: 0xFF 0xF8 0xFF
Standard ID: 0x130       DLC: 5  Data: 0x00 0x0F 0x34 0x3F 0xCD
Standard ID: 0x0A8       DLC: 8  Data: 0x71 0xF6 0xF5 0xF0 0xF5 0xF1 0x03 0x00
Standard ID: 0x0AA       DLC: 8  Data: 0x1D 0xF7 0xF5 0x00 0x00 0x00 0x84 0x00
Standard ID: 0x0CE       DLC: 8  Data: 0x00 0x00 0x00 0x00 0x00 0x00 0x00 0x00
Standard ID: 0x1D2       DLC: 6  Data: 0xF0 0x0F 0xFF 0x0C 0xF0 0xFF
Standard ID: 0x1A0       DLC: 8  Data: 0x00 0x80 0x01 0x80 0x00 0x00 0x30 0xD3
Standard ID: 0x1D0       DLC: 8  Data: 0x36 0xFF 0x4E 0xB7 0x00 0x00 0xFD 0x88
Standard ID: 0x0C0       DLC: 2  Data: 0xF0 0xFF
Standard ID: 0x1B5       DLC: 6  Data: 0xFF 0xFF 0x02 0x00 0x08 0xFF
Standard ID: 0x1A6       DLC: 8  Data: 0x00 0x00 0x00 0x00 0x00 0x00 0x44 0xFE
Standard ID: 0x0FD       DLC: 3  Data: 0xFF 0xFF 0xFF
Standard ID: 0x0FC       DLC: 3  Data: 0xFF 0xF8 0xFF
Standard ID: 0x130       DLC: 5  Data: 0x00 0x0F 0x34 0x3F 0xDE
Standard ID: 0x0A8       DLC: 8  Data: 0x8C 0x01 0xF6 0x00 0xF6 0xF1 0x03 0x00
Standard ID: 0x4E2       DLC: 8  Data: 0x64 0x42 0xFF 0x01 0xFF 0x01 0xFF 0xFF
Standard ID: 0x0CE       DLC: 8  Data: 0x00 0x00 0x00 0x00 0x00 0x00 0x00 0x00
Standard ID: 0x1A0       DLC: 8  Data: 0x00 0x80 0x01 0x80 0x00 0x00 0x80 0x24
Standard ID: 0x0AA       DLC: 8  Data: 0x28 0x02 0xF6 0x00 0x00 0x00 0x84 0x00
Standard ID: 0x1D0       DLC: 8  Data: 0x36 0xFF 0x4E 0xB7 0x00 0x00 0xFD 0x88
Standard ID: 0x5C0       DLC: 8  Data: 0x04 0x00 0x32 0xFF 0xFF 0xFF 0xF4 0xFF
Standard ID: 0x1A6       DLC: 8  Data: 0x00 0x00 0x00 0x00 0x00 0x00 0xD4 0xFF
Standard ID: 0x0FD       DLC: 3  Data: 0xFF 0xFF 0xFF
Standard ID: 0x0FC       DLC: 3  Data: 0xFF 0xF8 0xFF
Standard ID: 0x4E4       DLC: 8  Data: 0x65 0x52 0xFF 0x01 0xFF 0xFF 0xFF 0xFF
Standard ID: 0x0A8       DLC: 8  Data: 0x76 0xFB 0xF5 0xF0 0xF5 0xF1 0x03 0x00
Standard ID: 0x0AA       DLC: 8  Data: 0x22 0xFC 0xF5 0x00 0x00 0x00 0x84 0x00
Standard ID: 0x0CE       DLC: 8  Data: 0x00 0x00 0x00 0x00 0x00 0x00 0x00 0x00
Standard ID: 0x1D2       DLC: 6  Data: 0xF0 0x0F 0xFF 0x1C 0xF0 0xFF
Standard ID: 0x130       DLC: 5  Data: 0x00 0x0F 0x34 0x3F 0xE0
Standard ID: 0x1D0       DLC: 8  Data: 0x36 0xFF 0x40 0xB7 0x00 0x00 0xFD 0x88
Standard ID: 0x0C0       DLC: 2  Data: 0xF1 0xFF
Standard ID: 0x1A6       DLC: 8  Data: 0x00 0x00 0x00 0x00 0x00 0x00 0x64 0xF1
Standard ID: 0x0FD       DLC: 3  Data: 0xFF 0xFF 0xFF
Standard ID: 0x0FC       DLC: 3  Data: 0xFF 0xF8 0xFF
Standard ID: 0x4E5       DLC: 8  Data: 0x67 0x52 0xFF 0x01 0xFF 0xFF 0xFF 0xFF
Standard ID: 0x1D6       DLC: 2  Data: 0xC0 0x00
Standard ID: 0x0BE       DLC: 5  Data: 0xFF 0xFF 0xFF 0xFF 0xFF
Standard ID: 0x0C8       DLC: 6  Data: 0x00 0x80 0xFD 0x00 0x80 0xA5
Standard ID: 0x1A0       DLC: 8  Data: 0x00 0x80 0x01 0x80 0x00 0xF7 0x3F 0xDA
Standard ID: 0x130       DLC: 5  Data: 0x00 0x0F 0x34 0x3F 0xF1
Standard ID: 0x1D0       DLC: 8  Data: 0x36 0xFF 0x40 0xB7 0x00 0x00 0xFD 0x88
Standard ID: 0x5E2       DLC: 8  Data: 0x01 0x02 0xEE 0xFF 0xFF 0xFF 0xFF 0xFF
Standard ID: 0x2EE       DLC: 2  Data: 0xFF 0xFF
Standard ID: 0x1A6       DLC: 8  Data: 0x00 0x00 0x00 0x00 0x00 0x00 0xF4 0xF2
Standard ID: 0x0FD       DLC: 3  Data: 0xFF 0xFF 0xFF
Standard ID: 0x0FC       DLC: 3  Data: 0xFF 0xF8 0xFF
Standard ID: 0x4E7       DLC: 8  Data: 0x70 0x52 0xFF 0x01 0xFF 0xFF 0xFF 0xFF
Standard ID: 0x0A8       DLC: 8  Data: 0x8C 0x01 0xF6 0x00 0xF6 0xF1 0x03 0x00
Standard ID: 0x0AA       DLC: 8  Data: 0x28 0x02 0xF6 0x00 0x00 0x00 0x84 0x00
Standard ID: 0x0CE       DLC: 8  Data: 0x00 0x00 0x00 0x00 0x00 0x00 0x00 0x00
Standard ID: 0x1D2       DLC: 6  Data: 0xF0 0x0F 0xFF 0x2C 0xF0 0xFF
Standard ID: 0x130       DLC: 5  Data: 0x00 0x0F 0x34 0x3F 0x02
Standard ID: 0x1D0       DLC: 8  Data: 0x36 0xFF 0x41 0xB7 0x00 0x00 0xFD 0x88
Standard ID: 0x0C0       DLC: 2  Data: 0xF2 0xFF
Standard ID: 0x4F0       DLC: 8  Data: 0x72 0x52 0xFF 0x01 0x00 0xA4 0x84 0x00
Standard ID: 0x1A6       DLC: 8  Data: 0x00 0x00 0x00 0x00 0x00 0x00 0x84 0xF4
Standard ID: 0x0FD       DLC: 3  Data: 0xFF 0xFF 0xFF
Standard ID: 0x0FC       DLC: 3  Data: 0xFF 0xF8 0xFF
Standard ID: 0x130       DLC: 5  Data: 0x00 0x0F 0x34 0x3F 0x13
Standard ID: 0x0AA       DLC: 8  Data: 0x32 0x0C 0xF6 0x00 0x00 0x00 0x84 0x00
Standard ID: 0x0C4       DLC: 7  Data: 0x00 0x80 0xFD 0x00 0x80 0xE3 0xFD
Standard ID: 0x1A0       DLC: 8  Data: 0x00 0x80 0x01 0x80 0x00 0xFE 0xDF 0x82
Standard ID: 0x0A8       DLC: 8  Data: 0x96 0x0B 0xF6 0x00 0xF6 0xF1 0x03 0x00
Standard ID: 0x1D0       DLC: 8  Data: 0x36 0xFF 0x41 0xB7 0x00 0x00 0xFD 0x88
Standard ID: 0x4F2       DLC: 8  Data: 0x73 0x52 0xFF 0x01 0x00 0x00 0x00 0x00
Standard ID: 0x328       DLC: 6  Data: 0xFA 0x02 0x00 0x00 0xB3 0x18
Standard ID: 0x1A6       DLC: 8  Data: 0x00 0x00 0x00 0x00 0x00 0x00 0x14 0xF6
Standard ID: 0x0FD       DLC: 3  Data: 0xFF 0xFF 0xFF
Standard ID: 0x0FC       DLC: 3  Data: 0xFF 0xF8 0xFF
Standard ID: 0x130       DLC: 5  Data: 0x00 0x0F 0x34 0x3F 0x24
Standard ID: 0x0A8       DLC: 8  Data: 0x71 0xF6 0xF5 0xF0 0xF5 0xF1 0x03 0x00
Standard ID: 0x0AA       DLC: 8  Data: 0x1D 0xF7 0xF5 0x00 0x00 0x00 0x84 0x00
Standard ID: 0x0CE       DLC: 8  Data: 0x00 0x00 0x00 0x00 0x00 0x00 0x00 0x00
Standard ID: 0x1D2       DLC: 6  Data: 0xF0 0x0F 0xFF 0x3C 0xF0 0xFF
Standard ID: 0x1A0       DLC: 8  Data: 0x00 0x80 0x01 0x80 0x00 0xF9 0x3F 0xDC
Standard ID: 0x1D0       DLC: 8  Data: 0x36 0xFF 0x42 0xB7 0x00 0x00 0xFD 0x88
Standard ID: 0x691       DLC: 8  Data: 0xFD 0x03 0x71 0x0A 0x01 0x00 0x00 0x00
Standard ID: 0x0C0       DLC: 2  Data: 0xF3 0xFF
Standard ID: 0x698       DLC: 8  Data: 0xFD 0x03 0x71 0x0A 0x01 0x00 0x00 0x00
Standard ID: 0x4F3       DLC: 8  Data: 0x78 0x52 0xFF 0x01 0xFF 0xFF 0xFF 0xFF
Standard ID: 0x663       DLC: 8  Data: 0xFD 0x03 0x71 0x0A 0x01 0x00 0x00 0x00
Standard ID: 0x1A6       DLC: 8  Data: 0x00 0x00 0x00 0x00 0x00 0x00 0xA4 0xF7
Standard ID: 0x0FD       DLC: 3  Data: 0xFF 0xFF 0xFF
Standard ID: 0x0FC       DLC: 3  Data: 0xFF 0xF8 0xFF
Standard ID: 0x130       DLC: 5  Data: 0x00 0x0F 0x34 0x3F 0x35
Standard ID: 0x0A8       DLC: 8  Data: 0x6C 0xF1 0xF5 0xF0 0xF5 0xF1 0x03 0x00
Standard ID: 0x0BE       DLC: 5  Data: 0xFF 0xFF 0xFF 0xFF 0xFF
Standard ID: 0x0CE       DLC: 8  Data: 0x00 0x00 0x00 0x00 0x00 0x00 0x00 0x00
Standard ID: 0x1A0       DLC: 8  Data: 0x00 0x80 0x01 0x80 0x00 0xFE 0x8F 0x32
Standard ID: 0x0AA       DLC: 8  Data: 0x18 0xF2 0xF5 0x00 0x00 0x00 0x84 0x00
Standard ID: 0x691       DLC: 8  Data: 0xFD 0x10 0x0E 0x5A 0x9F 0x00 0x07 0xEB
Standard ID: 0x1D0       DLC: 8  Data: 0x36 0xFF 0x42 0xB7 0x00 0x00 0xFD 0x88
Standard ID: 0x4F8       DLC: 8  Data: 0x00 0x52 0xFF 0x01 0xFF 0xFF 0xFF 0xFF
Standard ID: 0x663       DLC: 8  Data: 0xFD 0x10 0x0E 0x5A 0x9F 0x00 0x07 0xEB
Standard ID: 0x698       DLC: 8  Data: 0xFD 0x10 0x0E 0x5A 0x9F 0x00 0x07 0xEB
Standard ID: 0x1A6       DLC: 8  Data: 0x00 0x00 0x00 0x00 0x00 0x00 0x34 0xF9
Standard ID: 0x0FD       DLC: 3  Data: 0xFF 0xFF 0xFF
Standard ID: 0x0FC       DLC: 3  Data: 0xFF 0xF8 0xFF
Standard ID: 0x130       DLC: 5  Data: 0x00 0x0F 0x34 0x3F 0x46
Standard ID: 0x0A8       DLC: 8  Data: 0x76 0xFB 0xF5 0xF0 0xF5 0xF1 0x03 0x00
Standard ID: 0x0AA       DLC: 8  Data: 0x22 0xFC 0xF5 0x00 0x00 0x00 0x84 0x00
Standard ID: 0x0CE       DLC: 8  Data: 0x00 0x00 0x00 0x00 0x00 0x00 0x00 0x00
Standard ID: 0x480       DLC: 8  Data: 0x38 0x42 0xFF 0x01 0xFF 0xFF 0xFF 0xFF
Standard ID: 0x1A0       DLC: 8  Data: 0x00 0x80 0x01 0x80 0x00 0xFE 0xDF 0x82
Standard ID: 0x1D0       DLC: 8  Data: 0x36 0xFF 0x43 0xB7 0x00 0x00 0xFD 0x88
Standard ID: 0x0C0       DLC: 2  Data: 0xF4 0xFF
Standard ID: 0x580       DLC: 8  Data: 0x04 0x11 0x04 0x01 0x05 0xFF 0x00 0xF0
Standard ID: 0x1A6       DLC: 8  Data: 0x00 0x00 0x00 0x00 0x00 0x00 0xC4 0xFA
Standard ID: 0x3BD       DLC: 2  Data: 0xFD 0xFF
Standard ID: 0x0EE       DLC: 8  Data: 0x81 0xFF 0xE7 0xFC 0xFF 0xFF 0xFF 0xFF
Standard ID: 0x0FD       DLC: 3  Data: 0xFF 0xFF 0xFF
Standard ID: 0x2A0       DLC: 8  Data: 0x88 0x88 0x88 0x03 0x02 0x61 0x00 0x21
Standard ID: 0x0AA       DLC: 8  Data: 0x1D 0xF7 0xF5 0x00 0x00 0x00 0x84 0x00
Standard ID: 0x0CE       DLC: 8  Data: 0x00 0x00 0x00 0x00 0x00 0x00 0x00 0x00
Standard ID: 0x2FA       DLC: 5  Data: 0xFC 0xFC 0xFF 0xFF 0xFF
Standard ID: 0x304       DLC: 2  Data: 0xE3 0xFF
Standard ID: 0x1D0       DLC: 8  Data: 0x36 0xFF 0x43 0xB7 0x00 0x00 0xFD 0x88
Standard ID: 0x330       DLC: 8  Data: 0x11 0xBB 0x05 0x16 0x00 0x2C 0xDC 0x0D
Standard ID: 0x2CA       DLC: 2  Data: 0x5F 0xFF
Standard ID: 0x0E6       DLC: 8  Data: 0x81 0xFF 0xE7 0xFC 0xFF 0xFF 0xFF 0xFF
Standard ID: 0x1A6       DLC: 8  Data: 0x00 0x00 0x00 0x00 0x00 0x00 0x54 0xFC
Standard ID: 0x0FD       DLC: 3  Data: 0xFF 0xFF 0xFF
Standard ID: 0x0FC       DLC: 3  Data: 0xFF 0xF8 0xFF
Standard ID: 0x130       DLC: 5  Data: 0x00 0x0F 0x34 0x3F 0x68
Standard ID: 0x0A8       DLC: 8  Data: 0x6C 0xF1 0xF5 0xF0 0xF5 0xF1 0x03 0x00
Standard ID: 0x0AA       DLC: 8  Data: 0x18 0xF2 0xF5 0x00 0x00 0x00 0x84 0x00
Standard ID: 0x0CE       DLC: 8  Data: 0x00 0x00 0x00 0x00 0x00 0x00 0x00 0x00
Standard ID: 0x1D2       DLC: 6  Data: 0xF0 0x0F 0xFF 0x5C 0xF0 0xFF
Standard ID: 0x31D       DLC: 2  Data: 0x00 0xFE
Standard ID: 0x1D0       DLC: 8  Data: 0x36 0xFF 0x44 0xB7 0x00 0x00 0xFD 0x88
Standard ID: 0x0C0       DLC: 2  Data: 0xF5 0xFF
Standard ID: 0x1B5       DLC: 6  Data: 0xFF 0xFF 0x02 0x00 0x08 0xFF
Standard ID: 0x1A6       DLC: 8  Data: 0x00 0x00 0x00 0x00 0x00 0x00 0xE4 0xFD
Standard ID: 0x0FD       DLC: 3  Data: 0xFF 0xFF 0xFF
Standard ID: 0x0FC       DLC: 3  Data: 0xFF 0xF8 0xFF
Standard ID: 0x4C3       DLC: 8  Data: 0x44 0x52 0xFF 0x01 0xFF 0xFF 0xFF 0xFF
Standard ID: 0x0A8       DLC: 8  Data: 0x96 0x0B 0xF6 0x00 0xF6 0xF1 0x03 0x00
Standard ID: 0x0BE       DLC: 5  Data: 0xFF 0xFF 0xFF 0xFF 0xFF
Standard ID: 0x19E       DLC: 8  Data: 0x00 0xED 0xD0 0xFC 0xF0 0x43 0x00 0x8F
Standard ID: 0x1A0       DLC: 8  Data: 0x00 0x80 0x01 0x80 0x00 0xFE 0xDF 0x82
Standard ID: 0x2F7       DLC: 4  Data: 0x01 0xC9 0x49 0xFF
Standard ID: 0x1D0       DLC: 8  Data: 0x36 0xFF 0x44 0xB7 0x00 0x00 0xFD 0x88
Standard ID: 0x130       DLC: 5  Data: 0x00 0x0F 0x34 0x3F 0x79
Standard ID: 0x4C4       DLC: 8  Data: 0x45 0x52 0xFF 0x01 0xFF 0xFF 0xFF 0xFF
Standard ID: 0x1A6       DLC: 8  Data: 0x00 0x00 0x00 0x00 0x00 0x00 0x74 0xFF
Standard ID: 0x0FD       DLC: 3  Data: 0xFF 0xFF 0xFF
Standard ID: 0x130       DLC: 5  Data: 0x00 0x0F 0x34 0x3F 0x8A
Standard ID: 0x0A8       DLC: 8  Data: 0x71 0xF6 0xF5 0xF0 0xF5 0xF1 0x03 0x00
Standard ID: 0x0AA       DLC: 8  Data: 0x1D 0xF7 0xF5 0x00 0x00 0x00 0x84 0x00
Standard ID: 0x0CE       DLC: 8  Data: 0x00 0x00 0x00 0x00 0x00 0x00 0x00 0x00
Standard ID: 0x1D2       DLC: 6  Data: 0xF0 0x0F 0xFF 0x6C 0xF0 0xFF
Standard ID: 0x0FC       DLC: 3  Data: 0xFF 0xF8 0xFF
Standard ID: 0x1D0       DLC: 8  Data: 0x36 0xFF 0x45 0xB7 0x00 0x00 0xFD 0x88
Standard ID: 0x0C0       DLC: 2  Data: 0xF6 0xFF
Standard ID: 0x4C5       DLC: 8  Data: 0x60 0x52 0xFF 0xFF 0xFF 0xFF 0xFF 0xFF
Standard ID: 0x1A6       DLC: 8  Data: 0x00 0x00 0x00 0x00 0x00 0x00 0x04 0xF1
Standard ID: 0x0FD       DLC: 3  Data: 0xFF 0xFF 0xFF
Standard ID: 0x0FC       DLC: 3  Data: 0xFF 0xF8 0xFF
Standard ID: 0x130       DLC: 5  Data: 0x00 0x0F 0x34 0x3F 0x9B
Standard ID: 0x1EA       DLC: 2  Data: 0xFF 0xFF
Standard ID: 0x0BE       DLC: 5  Data: 0xFF 0xFF 0xFF 0xFF 0xFF
Standard ID: 0x0C8       DLC: 6  Data: 0x00 0x80 0xFD 0x00 0x80 0x45
Standard ID: 0x1A0       DLC: 8  Data: 0x00 0x80 0xFC 0x8F 0x00 0xFE 0x8F 0x3D
Standard ID: 0x1D6       DLC: 2  Data: 0xC0 0x00
Standard ID: 0x1D0       DLC: 8  Data: 0x36 0xFF 0x45 0xB7 0x00 0x00 0xFD 0x88
Standard ID: 0x5F8       DLC: 8  Data: 0x08 0x06 0x00 0xFE 0xFF 0xFF 0xFF 0xFF
Standard ID: 0x4E0       DLC: 8  Data: 0x62 0x52 0xFF 0x01 0xFF 0xFF 0xFF 0xFF
Standard ID: 0x1A6       DLC: 8  Data: 0x00 0x00 0x00 0x00 0x00 0x00 0x94 0xF2
Standard ID: 0x0FD       DLC: 3  Data: 0xFF 0xFF 0xFF
Standard ID: 0x3B3       DLC: 6  Data: 0xF1 0xFF 0xFF 0x7F 0x00 0x01
Standard ID: 0x130       DLC: 5  Data: 0x00 0x0F 0x34 0x3F 0xAC
Standard ID: 0x0A8       DLC: 8  Data: 0x96 0x0B 0xF6 0x00 0xF6 0xF1 0x03 0x00
Standard ID: 0x0AA       DLC: 8  Data: 0x32 0x0C 0xF6 0x00 0x00 0x00 0x84 0x00
Standard ID: 0x3B4       DLC: 8  Data: 0x36 0xF3 0x09 0xFF 0x03 0x03 0x00 0x00
Standard ID: 0x1D2       DLC: 6  Data: 0xF0 0x0F 0xFF 0x7C 0xF0 0xFF
Standard ID: 0x0FC       DLC: 3  Data: 0xFF 0xF8 0xFF
Standard ID: 0x1D0       DLC: 8  Data: 0x36 0xFF 0x46 0xB7 0x00 0x00 0xFD 0x88
Standard ID: 0x0C0       DLC: 2  Data: 0xF7 0xFF
Standard ID: 0x4E2       DLC: 8  Data: 0x64 0x42 0xFF 0x01 0xFF 0x01 0xFF 0xFF
Standard ID: 0x1A6       DLC: 8  Data: 0x00 0x00 0x00 0x00 0x00 0x00 0x24 0xF4
Standard ID: 0x0FD       DLC: 3  Data: 0xFF 0xFF 0xFF
Standard ID: 0x0FC       DLC: 3  Data: 0xFF 0xF8 0xFF
Standard ID: 0x130       DLC: 5  Data: 0x00 0x0F 0x34 0x3F 0xCD
Standard ID: 0x0A8       DLC: 8  Data: 0x71 0xF6 0xF5 0xF0 0xF5 0xF1 0x03 0x00
Standard ID: 0x0BE       DLC: 5  Data: 0xFF 0xFF 0xFF 0xFF 0xFF
Standard ID: 0x0CE       DLC: 8  Data: 0x00 0x00 0x00 0x00 0x00 0x00 0x00 0x00
Standard ID: 0x1A0       DLC: 8  Data: 0x00 0x80 0x01 0x80 0x00 0xF7 0x3F 0xDA
Standard ID: 0x0AA       DLC: 8  Data: 0x1D 0xF7 0xF5 0x00 0x00 0x00 0x84 0x00
Standard ID: 0x1D0       DLC: 8  Data: 0x36 0xFF 0x46 0xB7 0x00 0x00 0xFD 0x88
Standard ID: 0x4E4       DLC: 8  Data: 0x65 0x52 0xFF 0x01 0xFF 0xFF 0xFF 0xFF
Standard ID: 0x328       DLC: 6  Data: 0xFB 0x02 0x00 0x00 0xB3 0x18
Standard ID: 0x1A6       DLC: 8  Data: 0x00 0x00 0x00 0x00 0x00 0x00 0xB4 0xF5
Standard ID: 0x0FD       DLC: 3  Data: 0xFF 0xFF 0xFF
Standard ID: 0x0FC       DLC: 3  Data: 0xFF 0xF8 0xFF
Standard ID: 0x130       DLC: 5  Data: 0x00 0x0F 0x34 0x3F 0xDE
Standard ID: 0x0A8       DLC: 8  Data: 0x8C 0x01 0xF6 0x00 0xF6 0xF1 0x03 0x00
Standard ID: 0x0AA       DLC: 8  Data: 0x28 0x02 0xF6 0x00 0x00 0x00 0x84 0x00
Standard ID: 0x0CE       DLC: 8  Data: 0x00 0x00 0x00 0x00 0x00 0x00 0x00 0x00
Standard ID: 0x1D2       DLC: 6  Data: 0xF0 0x0F 0xFF 0x8C 0xF0 0xFF
Standard ID: 0x1A0       DLC: 8  Data: 0x00 0x80 0x01 0x80 0x00 0xFE 0x8F 0x32
Standard ID: 0x1D0       DLC: 8  Data: 0x36 0xFF 0x47 0xB7 0x00 0x00 0xFD 0x88
Standard ID: 0x4E5       DLC: 8  Data: 0x67 0x52 0xFF 0x01 0xFF 0xFF 0xFF 0xFF
Standard ID: 0x0C0       DLC: 2  Data: 0xF8 0xFF
Standard ID: 0x1A6       DLC: 8  Data: 0x00 0x00 0x00 0x00 0x00 0x00 0x44 0xF7
Standard ID: 0x0FD       DLC: 3  Data: 0xFF 0xFF 0xFF
Standard ID: 0x0FC       DLC: 3  Data: 0xFF 0xF8 0xFF
Standard ID: 0x130       DLC: 5  Data: 0x00 0x0F 0x34 0x3F 0xE0
Standard ID: 0x0A8       DLC: 8  Data: 0x76 0xFB 0xF5 0xF0 0xF5 0xF1 0x03 0x00
Standard ID: 0x0BE       DLC: 5  Data: 0xFF 0xFF 0xFF 0xFF 0xFF
Standard ID: 0x0CE       DLC: 8  Data: 0x00 0x00 0x00 0x00 0x00 0x00 0x00 0x00
Standard ID: 0x1A0       DLC: 8  Data: 0x00 0x80 0x01 0x80 0x00 0x00 0xD0 0x74
Standard ID: 0x4E7       DLC: 8  Data: 0x70 0x52 0xFF 0x01 0xFF 0xFF 0xFF 0xFF
Standard ID: 0x1D0       DLC: 8  Data: 0x36 0xFF 0x47 0xB7 0x00 0x00 0xFD 0x88
Standard ID: 0x0AA       DLC: 8  Data: 0x22 0xFC 0xF5 0x00 0x00 0x00 0x84 0x00
Standard ID: 0x1A6       DLC: 8  Data: 0x00 0x00 0x00 0x00 0x00 0x00 0xD4 0xF8
Standard ID: 0x0FD       DLC: 3  Data: 0xFF 0xFF 0xFF
Standard ID: 0x0FC       DLC: 3  Data: 0xFF 0xF8 0xFF
Standard ID: 0x130       DLC: 5  Data: 0x00 0x0F 0x34 0x3F 0xF1
Standard ID: 0x0A8       DLC: 8  Data: 0x71 0xF6 0xF5 0xF0 0xF5 0xF1 0x03 0x00
Standard ID: 0x0CE       DLC: 8  Data: 0x00 0x00 0x00 0x00 0x00 0x00 0x00 0x00
Standard ID: 0x1A0       DLC: 8  Data: 0x00 0x80 0x00 0x80 0x00 0xF9 0x3F 0xDB
Standard ID: 0x1D2       DLC: 6  Data: 0xF0 0x0F 0xFF 0x9C 0xF0 0xFF
Standard ID: 0x4F0       DLC: 8  Data: 0x72 0x52 0xFF 0x01 0x00 0xA4 0x84 0x00
Standard ID: 0x1D0       DLC: 8  Data: 0x36 0xFF 0x48 0xB7 0x00 0x00 0xFD 0x88
Standard ID: 0x0AA       DLC: 8  Data: 0x1D 0xF7 0xF5 0x00 0x00 0x00 0x84 0x00
Standard ID: 0x0C0       DLC: 2  Data: 0xF9 0xFF
Standard ID: 0x1A6       DLC: 8  Data: 0x00 0x00 0x00 0x00 0x00 0x00 0x64 0xFA
Standard ID: 0x0FD       DLC: 3  Data: 0xFF 0xFF 0xFF
Standard ID: 0x0FC       DLC: 3  Data: 0xFF 0xF8 0xFF
Standard ID: 0x130       DLC: 5  Data: 0x00 0x0F 0x34 0x3F 0x02
Standard ID: 0x0A8       DLC: 8  Data: 0x6C 0xF1 0xF5 0xF0 0xF5 0xF1 0x03 0x00
Standard ID: 0x0BE       DLC: 5  Data: 0xFF 0xFF 0xFF 0xFF 0xFF
Standard ID: 0x4F2       DLC: 8  Data: 0x73 0x52 0xFF 0x01 0x00 0x00 0x00 0x00
Standard ID: 0x1FE       DLC: 2  Data: 0xFF 0x00
Standard ID: 0x304       DLC: 2  Data: 0xE3 0xFF
Standard ID: 0x0AA       DLC: 8  Data: 0x18 0xF2 0xF5 0x00 0x00 0x00 0x84 0x00
Standard ID: 0x1D0       DLC: 8  Data: 0x36 0xFF 0x48 0xB7 0x00 0x00 0xFD 0x88
Standard ID: 0x2CA       DLC: 2  Data: 0x5F 0xFF
Standard ID: 0x1A6       DLC: 8  Data: 0x00 0x00 0x00 0x00 0x00 0x00 0xF4 0xFB
Standard ID: 0x0FD       DLC: 3  Data: 0xFF 0xFF 0xFF
Standard ID: 0x0FC       DLC: 3  Data: 0xFF 0xF8 0xFF
Standard ID: 0x130       DLC: 5  Data: 0x00 0x0F 0x34 0x3F 0x13
Standard ID: 0x4F3       DLC: 8  Data: 0x78 0x52 0xFF 0x01 0xFF 0xFF 0xFF 0xFF
Standard ID: 0x0AA       DLC: 8  Data: 0x22 0xFC 0xF5 0x00 0x00 0x00 0x84 0x00
Standard ID: 0x0CE       DLC: 8  Data: 0x00 0x00 0x00 0x00 0x00 0x00 0x00 0x00
Standard ID: 0x1D2       DLC: 6  Data: 0xF0 0x0F 0xFF 0xAC 0xF0 0xFF
Standard ID: 0x0A8       DLC: 8  Data: 0x76 0xFB 0xF5 0xF0 0xF5 0xF1 0x03 0x00
Standard ID: 0x1D0       DLC: 8  Data: 0x36 0xFF 0x49 0xB7 0x00 0x00 0xFD 0x88
Standard ID: 0x0C0       DLC: 2  Data: 0xFA 0xFF
Standard ID: 0x1B5       DLC: 6  Data: 0xFF 0xFF 0x02 0x00 0x08 0xFF
Standard ID: 0x4F8       DLC: 8  Data: 0x00 0x52 0xFF 0x01 0xFF 0xFF 0xFF 0xFF
Standard ID: 0x1A6       DLC: 8  Data: 0x00 0x00 0x00 0x00 0x00 0x00 0x84 0xFD
Standard ID: 0x0FD       DLC: 3  Data: 0xFF 0xFF 0xFF
Standard ID: 0x0FC       DLC: 3  Data: 0xFF 0xF8 0xFF
Standard ID: 0x130       DLC: 5  Data: 0x00 0x0F 0x34 0x3F 0x24
Standard ID: 0x0AA       DLC: 8  Data: 0x2D 0x07 0xF6 0x00 0x00 0x00 0x84 0x00
Standard ID: 0x0C4       DLC: 7  Data: 0x00 0x80 0xFD 0x00 0x80 0xE3 0xFD
Standard ID: 0x1A0       DLC: 8  Data: 0x00 0x80 0x01 0x80 0x00 0xFE 0x3F 0xE1
Standard ID: 0x0A8       DLC: 8  Data: 0x91 0x06 0xF6 0x00 0xF6 0xF1 0x03 0x00
Standard ID: 0x1D0       DLC: 8  Data: 0x36 0xFF 0x49 0xB7 0x00 0x00 0xFD 0x88
Standard ID: 0x480       DLC: 8  Data: 0x38 0x42 0xFF 0x01 0xFF 0xFF 0xFF 0xFF
Standard ID: 0x5C0       DLC: 8  Data: 0x04 0x00 0x32 0xFF 0xFF 0xFF 0xF4 0xFF
Standard ID: 0x1A6       DLC: 8  Data: 0x00 0x00 0x00 0x00 0x00 0x00 0x14 0xFF
Standard ID: 0x0FD       DLC: 3  Data: 0xFF 0xFF 0xFF
Standard ID: 0x0FC       DLC: 3  Data: 0xFF 0xF8 0xFF
Standard ID: 0x130       DLC: 5  Data: 0x00 0x0F 0x34 0x3F 0x35
Standard ID: 0x0A8       DLC: 8  Data: 0x6C 0xF1 0xF5 0xF0 0xF5 0xF1 0x03 0x00
Standard ID: 0x0AA       DLC: 8  Data: 0x18 0xF2 0xF5 0x00 0x00 0x00 0x84 0x00
Standard ID: 0x0CE       DLC: 8  Data: 0x00 0x00 0x00 0x00 0x00 0x00 0x00 0x00
Standard ID: 0x1D2       DLC: 6  Data: 0xF0 0x0F 0xFF 0xBC 0xF0 0xFF
Standard ID: 0x1B6       DLC: 7  Data: 0xFF 0xFF 0x00 0xFF 0x00 0xFC 0x00
Standard ID: 0x1D0       DLC: 8  Data: 0x36 0xFF 0x4A 0xB7 0x00 0x00 0xFD 0x88
Standard ID: 0x0C0       DLC: 2  Data: 0xFB 0xFF
Standard ID: 0x4B8       DLC: 8  Data: 0x40 0x52 0xFF 0x01 0xFF 0xFF 0xFF 0xFF
Standard ID: 0x1A6       DLC: 8  Data: 0x00 0x00 0x00 0x00 0x00 0x00 0xA4 0xF0
Standard ID: 0x0FD       DLC: 3  Data: 0xFF 0xFF 0xFF
Standard ID: 0x0FC       DLC: 3  Data: 0xFF 0xF8 0xFF
Standard ID: 0x130       DLC: 5  Data: 0x00 0x0F 0x34 0x3F 0x46
Standard ID: 0x1EE       DLC: 2  Data: 0x00 0xFF
Standard ID: 0x0BE       DLC: 5  Data: 0xFF 0xFF 0xFF 0xFF 0xFF
Standard ID: 0x0C8       DLC: 6  Data: 0x00 0x80 0xFD 0x00 0x80 0xE5
Standard ID: 0x1A0       DLC: 8  Data: 0x00 0x80 0x01 0x80 0x00 0xF9 0xDF 0x7D
Standard ID: 0x1D6       DLC: 2  Data: 0xC0 0x00
Standard ID: 0x1D0       DLC: 8  Data: 0x36 0xFF 0x4A 0xB7 0x00 0x00 0xFD 0x88
Standard ID: 0x4C0       DLC: 8  Data: 0x43 0x42 0xFF 0x01 0x20 0x01 0xDA 0x00
Standard ID: 0x1A6       DLC: 8  Data: 0x00 0x00 0x00 0x00 0x00 0x00 0x34 0xF2
Standard ID: 0x0FD       DLC: 3  Data: 0xFF 0xFF 0xFF
Standard ID: 0x0FC       DLC: 3  Data: 0xFF 0xF8 0xFF
Standard ID: 0x130       DLC: 5  Data: 0x00 0x0F 0x34 0x3F 0x57
Standard ID: 0x0A8       DLC: 8  Data: 0x71 0xF6 0xF5 0xF0 0xF5 0xF1 0x03 0x00
Standard ID: 0x0CE       DLC: 8  Data: 0x00 0x00 0x00 0x00 0x00 0x00 0x00 0x00
Standard ID: 0x1A0       DLC: 8  Data: 0x00 0x80 0xFD 0x8F 0x00 0x00 0x30 0xDF
Standard ID: 0x1D2       DLC: 6  Data: 0xF0 0x0F 0xFF 0xCC 0xF0 0xFF
Standard ID: 0x0AA       DLC: 8  Data: 0x1D 0xF7 0xF5 0x00 0x00 0x00 0x84 0x00
Standard ID: 0x1D0       DLC: 8  Data: 0x36 0xFF 0x4B 0xB7 0x00 0x00 0xFD 0x88
Standard ID: 0x4C3       DLC: 8  Data: 0x44 0x52 0xFF 0x01 0xFF 0xFF 0xFF 0xFF
Standard ID: 0x0C0       DLC: 2  Data: 0xFC 0xFF
Standard ID: 0x1A6       DLC: 8  Data: 0x00 0x00 0x00 0x00 0x00 0x00 0xC4 0xF3
Standard ID: 0x0FD       DLC: 3  Data: 0xFF 0xFF 0xFF
Standard ID: 0x0FC       DLC: 3  Data: 0xFF 0xF8 0xFF
Standard ID: 0x130       DLC: 5  Data: 0x00 0x0F 0x34 0x3F 0x68
Standard ID: 0x0A8       DLC: 8  Data: 0x8C 0x01 0xF6 0x00 0xF6 0xF1 0x03 0x00
